Command: /home/st102/Training/outputs/blue_sand/simv +UVM_TESTNAME=reg_access_test -l /home/st102/Training/outputs/blue_sand/reg_access_test/run.log +ntb_random_seed=20624 +UVM_VERBOSITY=UVM_MEDIUM +vcs+lic+wait -ucli -i /home/st102/Training/outputs/blue_sand/reg_access_test/dump_config.ucli
Chronologic VCS simulator copyright 1991-2022
Contains Synopsys proprietary information.
Compiler version T-2022.06-SP2_Full64; Runtime version T-2022.06-SP2_Full64;  Jul  9 17:10 2026
UVM_INFO /usr/synopsys/vcs/T-2022.06-SP2/etc/uvm-1.2/base/uvm_root.svh(402) @ 0: reporter [UVM/RELNOTES] 
----------------------------------------------------------------
UVM-1.2.Synopsys
(C) 2007-2014 Mentor Graphics Corporation
(C) 2007-2014 Cadence Design Systems, Inc.
(C) 2006-2014 Synopsys, Inc.
(C) 2011-2013 Cypress Semiconductor Corp.
(C) 2013-2014 NVIDIA Corporation
----------------------------------------------------------------

  ***********       IMPORTANT RELEASE NOTES         ************

  You are using a version of the UVM library that has been compiled
  with `UVM_NO_DEPRECATED undefined.
  See http://www.eda.org/svdb/view.php?id=3313 for more details.

  You are using a version of the UVM library that has been compiled
  with `UVM_OBJECT_DO_NOT_NEED_CONSTRUCTOR undefined.
  See http://www.eda.org/svdb/view.php?id=3770 for more details.

      (Specify +UVM_NO_RELNOTES to turn off this notice)

ucli% config timebase 1NS
1ns
ucli% dump -file waveform.fsdb -type FSDB
*Verdi* Loading libsscore_vcs202206.so
FSDB Dumper for VCS, Release Verdi_T-2022.06-SP2, Linux x86_64/64bit, 11/22/2022
(C) 1996 - 2022 by Synopsys, Inc.
*Verdi* FSDB WARNING: The FSDB file already exists. Overwriting the FSDB file may crash the programs that are using this file.
*Verdi* : Create FSDB file 'waveform.fsdb'
FSDB0
ucli% dump -add / -depth 0 -fid FSDB0 -fsdb_opt +all
*Verdi* : Begin traversing the scope (/), layer (0).
*Verdi* : Enable +all dumping.
*Verdi* : End of traversing.
*Verdi* : Flush all FSDB Files at 0 ns.
1
ucli% run
UVM_INFO @ 0: reporter [RNTST] Running test reg_access_test...
UVM_INFO /usr/synopsys/vcs/T-2022.06-SP2/etc/uvm-1.2/base/uvm_root.svh(589) @ 0: reporter [UVMTOP] UVM testbench topology:
----------------------------------------------------------------
Name                       Type                      Size  Value
----------------------------------------------------------------
uvm_test_top               reg_access_test           -     @352 
  my_env                   env                       -     @365 
    agt_apb                agent_apb                 -     @375 
      drv0                 driver_apb                -     @541 
        rsp_port           uvm_analysis_port         -     @560 
        seq_item_port      uvm_seq_item_pull_port    -     @550 
      mon0                 monitor_apb               -     @570 
        mon_analysis_port  uvm_analysis_port         -     @580 
      seqr0                uvm_sequencer             -     @404 
        rsp_export         uvm_analysis_export       -     @413 
        seq_item_export    uvm_seq_item_pull_imp     -     @531 
        arbitration_queue  array                     0     -    
        lock_queue         array                     0     -    
        num_last_reqs      integral                  32    'd1  
        num_last_rsps      integral                  32    'd1  
    agt_counter            agent_counter             -     @384 
      mon0                 monitor_counter           -     @597 
        mon_analysis_port  uvm_analysis_port         -     @606 
    scbd_counter           scoreboard_counter        -     @393 
      data_export_apb      uvm_analysis_imp_apb      -     @617 
      data_export_counter  uvm_analysis_imp_counter  -     @627 
----------------------------------------------------------------

UVM_INFO /home/st102/Training/projects/blue_sand/verif/sv/driver_apb.sv(29) @ 0: uvm_test_top.my_env.agt_apb.drv0 [drv0] Waiting for data from sequencer
UVM_INFO /home/st102/Training/projects/blue_sand/verif/seq/apb_read_write_seq.sv(23) @ 470: uvm_test_top.my_env.agt_apb.seqr0@@my_seq [SEQ] Generate new item
UVM_INFO /home/st102/Training/projects/blue_sand/verif/seq/apb_read_write_seq.sv(24) @ 470: uvm_test_top.my_env.agt_apb.seqr0@@my_seq [SEQ] Seq send PKT to Driver: ADDR = 1, pwrite = 1, pwdata = 32af042b, prdata = 0, pslverr = 0, delay = 1
UVM_INFO /home/st102/Training/projects/blue_sand/verif/sv/driver_apb.sv(29) @ 610: uvm_test_top.my_env.agt_apb.drv0 [drv0] Waiting for data from sequencer
UVM_INFO /home/st102/Training/projects/blue_sand/verif/seq/apb_read_write_seq.sv(23) @ 610: uvm_test_top.my_env.agt_apb.seqr0@@my_seq [SEQ] Generate new item
UVM_INFO /home/st102/Training/projects/blue_sand/verif/seq/apb_read_write_seq.sv(24) @ 610: uvm_test_top.my_env.agt_apb.seqr0@@my_seq [SEQ] Seq send PKT to Driver: ADDR = 0, pwrite = 0, pwdata = 85b59ef, prdata = 0, pslverr = 0, delay = 5
UVM_INFO /home/st102/Training/projects/blue_sand/verif/sv/driver_apb.sv(29) @ 830: uvm_test_top.my_env.agt_apb.drv0 [drv0] Waiting for data from sequencer
UVM_INFO /home/st102/Training/projects/blue_sand/verif/seq/apb_read_write_seq.sv(23) @ 830: uvm_test_top.my_env.agt_apb.seqr0@@my_seq [SEQ] Generate new item
UVM_INFO /home/st102/Training/projects/blue_sand/verif/seq/apb_read_write_seq.sv(24) @ 830: uvm_test_top.my_env.agt_apb.seqr0@@my_seq [SEQ] Seq send PKT to Driver: ADDR = 1, pwrite = 0, pwdata = fa7b1ebd, prdata = 0, pslverr = 0, delay = 0
UVM_INFO /home/st102/Training/projects/blue_sand/verif/sv/driver_apb.sv(29) @ 950: uvm_test_top.my_env.agt_apb.drv0 [drv0] Waiting for data from sequencer
UVM_INFO /home/st102/Training/projects/blue_sand/verif/seq/apb_read_write_seq.sv(23) @ 950: uvm_test_top.my_env.agt_apb.seqr0@@my_seq [SEQ] Generate new item
UVM_INFO /home/st102/Training/projects/blue_sand/verif/seq/apb_read_write_seq.sv(24) @ 950: uvm_test_top.my_env.agt_apb.seqr0@@my_seq [SEQ] Seq send PKT to Driver: ADDR = 2, pwrite = 0, pwdata = 45bd4a66, prdata = 0, pslverr = 0, delay = 5
UVM_INFO /home/st102/Training/projects/blue_sand/verif/sv/driver_apb.sv(29) @ 1170: uvm_test_top.my_env.agt_apb.drv0 [drv0] Waiting for data from sequencer
UVM_INFO /home/st102/Training/projects/blue_sand/verif/seq/apb_read_write_seq.sv(23) @ 1170: uvm_test_top.my_env.agt_apb.seqr0@@my_seq [SEQ] Generate new item
UVM_INFO /home/st102/Training/projects/blue_sand/verif/seq/apb_read_write_seq.sv(24) @ 1170: uvm_test_top.my_env.agt_apb.seqr0@@my_seq [SEQ] Seq send PKT to Driver: ADDR = 5, pwrite = 1, pwdata = 1caf01c2, prdata = 0, pslverr = 0, delay = 2
UVM_INFO /home/st102/Training/projects/blue_sand/verif/sv/driver_apb.sv(29) @ 1330: uvm_test_top.my_env.agt_apb.drv0 [drv0] Waiting for data from sequencer
UVM_INFO /home/st102/Training/projects/blue_sand/verif/seq/apb_read_write_seq.sv(23) @ 1330: uvm_test_top.my_env.agt_apb.seqr0@@my_seq [SEQ] Generate new item
UVM_INFO /home/st102/Training/projects/blue_sand/verif/seq/apb_read_write_seq.sv(24) @ 1330: uvm_test_top.my_env.agt_apb.seqr0@@my_seq [SEQ] Seq send PKT to Driver: ADDR = 4, pwrite = 1, pwdata = 80e68993, prdata = 0, pslverr = 0, delay = 2
UVM_INFO /home/st102/Training/projects/blue_sand/verif/sv/driver_apb.sv(29) @ 1490: uvm_test_top.my_env.agt_apb.drv0 [drv0] Waiting for data from sequencer
UVM_INFO /home/st102/Training/projects/blue_sand/verif/seq/apb_read_write_seq.sv(23) @ 1490: uvm_test_top.my_env.agt_apb.seqr0@@my_seq [SEQ] Generate new item
UVM_INFO /home/st102/Training/projects/blue_sand/verif/seq/apb_read_write_seq.sv(24) @ 1490: uvm_test_top.my_env.agt_apb.seqr0@@my_seq [SEQ] Seq send PKT to Driver: ADDR = 3, pwrite = 0, pwdata = d7c9f522, prdata = 0, pslverr = 0, delay = 2
UVM_INFO /home/st102/Training/projects/blue_sand/verif/sv/driver_apb.sv(29) @ 1650: uvm_test_top.my_env.agt_apb.drv0 [drv0] Waiting for data from sequencer
UVM_INFO /home/st102/Training/projects/blue_sand/verif/seq/apb_read_write_seq.sv(23) @ 1650: uvm_test_top.my_env.agt_apb.seqr0@@my_seq [SEQ] Generate new item
UVM_INFO /home/st102/Training/projects/blue_sand/verif/seq/apb_read_write_seq.sv(24) @ 1650: uvm_test_top.my_env.agt_apb.seqr0@@my_seq [SEQ] Seq send PKT to Driver: ADDR = 6, pwrite = 0, pwdata = 85a4290d, prdata = 0, pslverr = 0, delay = 5
UVM_INFO /home/st102/Training/projects/blue_sand/verif/sv/driver_apb.sv(29) @ 1870: uvm_test_top.my_env.agt_apb.drv0 [drv0] Waiting for data from sequencer
UVM_INFO /home/st102/Training/projects/blue_sand/verif/seq/apb_read_write_seq.sv(23) @ 1870: uvm_test_top.my_env.agt_apb.seqr0@@my_seq [SEQ] Generate new item
UVM_INFO /home/st102/Training/projects/blue_sand/verif/seq/apb_read_write_seq.sv(24) @ 1870: uvm_test_top.my_env.agt_apb.seqr0@@my_seq [SEQ] Seq send PKT to Driver: ADDR = 1, pwrite = 1, pwdata = d94a63eb, prdata = 0, pslverr = 0, delay = 3
UVM_INFO /home/st102/Training/projects/blue_sand/verif/sv/driver_apb.sv(29) @ 2050: uvm_test_top.my_env.agt_apb.drv0 [drv0] Waiting for data from sequencer
UVM_INFO /home/st102/Training/projects/blue_sand/verif/seq/apb_read_write_seq.sv(23) @ 2050: uvm_test_top.my_env.agt_apb.seqr0@@my_seq [SEQ] Generate new item
UVM_INFO /home/st102/Training/projects/blue_sand/verif/seq/apb_read_write_seq.sv(24) @ 2050: uvm_test_top.my_env.agt_apb.seqr0@@my_seq [SEQ] Seq send PKT to Driver: ADDR = 2, pwrite = 1, pwdata = 89dcba9f, prdata = 0, pslverr = 0, delay = 1
UVM_INFO /home/st102/Training/projects/blue_sand/verif/sv/driver_apb.sv(29) @ 2190: uvm_test_top.my_env.agt_apb.drv0 [drv0] Waiting for data from sequencer
UVM_INFO /home/st102/Training/projects/blue_sand/verif/seq/apb_read_write_seq.sv(23) @ 2190: uvm_test_top.my_env.agt_apb.seqr0@@my_seq [SEQ] Generate new item
UVM_INFO /home/st102/Training/projects/blue_sand/verif/seq/apb_read_write_seq.sv(24) @ 2190: uvm_test_top.my_env.agt_apb.seqr0@@my_seq [SEQ] Seq send PKT to Driver: ADDR = 2, pwrite = 1, pwdata = 4cce7a53, prdata = 0, pslverr = 0, delay = 5
UVM_INFO /home/st102/Training/projects/blue_sand/verif/sv/driver_apb.sv(29) @ 2410: uvm_test_top.my_env.agt_apb.drv0 [drv0] Waiting for data from sequencer
UVM_INFO /home/st102/Training/projects/blue_sand/verif/seq/apb_read_write_seq.sv(23) @ 2410: uvm_test_top.my_env.agt_apb.seqr0@@my_seq [SEQ] Generate new item
UVM_INFO /home/st102/Training/projects/blue_sand/verif/seq/apb_read_write_seq.sv(24) @ 2410: uvm_test_top.my_env.agt_apb.seqr0@@my_seq [SEQ] Seq send PKT to Driver: ADDR = 4, pwrite = 1, pwdata = 18f57d81, prdata = 0, pslverr = 0, delay = 0
UVM_INFO /home/st102/Training/projects/blue_sand/verif/sv/driver_apb.sv(29) @ 2530: uvm_test_top.my_env.agt_apb.drv0 [drv0] Waiting for data from sequencer
UVM_INFO /home/st102/Training/projects/blue_sand/verif/seq/apb_read_write_seq.sv(23) @ 2530: uvm_test_top.my_env.agt_apb.seqr0@@my_seq [SEQ] Generate new item
UVM_INFO /home/st102/Training/projects/blue_sand/verif/seq/apb_read_write_seq.sv(24) @ 2530: uvm_test_top.my_env.agt_apb.seqr0@@my_seq [SEQ] Seq send PKT to Driver: ADDR = 6, pwrite = 1, pwdata = 50300f6, prdata = 0, pslverr = 0, delay = 4
UVM_INFO /home/st102/Training/projects/blue_sand/verif/sv/driver_apb.sv(29) @ 2730: uvm_test_top.my_env.agt_apb.drv0 [drv0] Waiting for data from sequencer
UVM_INFO /home/st102/Training/projects/blue_sand/verif/seq/apb_read_write_seq.sv(23) @ 2730: uvm_test_top.my_env.agt_apb.seqr0@@my_seq [SEQ] Generate new item
UVM_INFO /home/st102/Training/projects/blue_sand/verif/seq/apb_read_write_seq.sv(24) @ 2730: uvm_test_top.my_env.agt_apb.seqr0@@my_seq [SEQ] Seq send PKT to Driver: ADDR = 5, pwrite = 1, pwdata = 23f9c0a6, prdata = 0, pslverr = 0, delay = 5
UVM_INFO /home/st102/Training/projects/blue_sand/verif/sv/driver_apb.sv(29) @ 2950: uvm_test_top.my_env.agt_apb.drv0 [drv0] Waiting for data from sequencer
UVM_INFO /home/st102/Training/projects/blue_sand/verif/seq/apb_read_write_seq.sv(23) @ 2950: uvm_test_top.my_env.agt_apb.seqr0@@my_seq [SEQ] Generate new item
UVM_INFO /home/st102/Training/projects/blue_sand/verif/seq/apb_read_write_seq.sv(24) @ 2950: uvm_test_top.my_env.agt_apb.seqr0@@my_seq [SEQ] Seq send PKT to Driver: ADDR = 6, pwrite = 0, pwdata = c8857fe0, prdata = 0, pslverr = 0, delay = 5
UVM_INFO /home/st102/Training/projects/blue_sand/verif/sv/driver_apb.sv(29) @ 3170: uvm_test_top.my_env.agt_apb.drv0 [drv0] Waiting for data from sequencer
UVM_INFO /home/st102/Training/projects/blue_sand/verif/seq/apb_read_write_seq.sv(23) @ 3170: uvm_test_top.my_env.agt_apb.seqr0@@my_seq [SEQ] Generate new item
UVM_INFO /home/st102/Training/projects/blue_sand/verif/seq/apb_read_write_seq.sv(24) @ 3170: uvm_test_top.my_env.agt_apb.seqr0@@my_seq [SEQ] Seq send PKT to Driver: ADDR = 3, pwrite = 0, pwdata = d85df37, prdata = 0, pslverr = 0, delay = 3
UVM_INFO /home/st102/Training/projects/blue_sand/verif/sv/driver_apb.sv(29) @ 3350: uvm_test_top.my_env.agt_apb.drv0 [drv0] Waiting for data from sequencer
UVM_INFO /home/st102/Training/projects/blue_sand/verif/seq/apb_read_write_seq.sv(23) @ 3350: uvm_test_top.my_env.agt_apb.seqr0@@my_seq [SEQ] Generate new item
UVM_INFO /home/st102/Training/projects/blue_sand/verif/seq/apb_read_write_seq.sv(24) @ 3350: uvm_test_top.my_env.agt_apb.seqr0@@my_seq [SEQ] Seq send PKT to Driver: ADDR = 1, pwrite = 1, pwdata = 6cbb626e, prdata = 0, pslverr = 0, delay = 5
UVM_INFO /home/st102/Training/projects/blue_sand/verif/sv/driver_apb.sv(29) @ 3570: uvm_test_top.my_env.agt_apb.drv0 [drv0] Waiting for data from sequencer
UVM_INFO /home/st102/Training/projects/blue_sand/verif/seq/apb_read_write_seq.sv(23) @ 3570: uvm_test_top.my_env.agt_apb.seqr0@@my_seq [SEQ] Generate new item
UVM_INFO /home/st102/Training/projects/blue_sand/verif/seq/apb_read_write_seq.sv(24) @ 3570: uvm_test_top.my_env.agt_apb.seqr0@@my_seq [SEQ] Seq send PKT to Driver: ADDR = 3, pwrite = 1, pwdata = ef693c47, prdata = 0, pslverr = 0, delay = 5
UVM_INFO /home/st102/Training/projects/blue_sand/verif/sv/driver_apb.sv(29) @ 3790: uvm_test_top.my_env.agt_apb.drv0 [drv0] Waiting for data from sequencer
UVM_INFO /home/st102/Training/projects/blue_sand/verif/seq/apb_read_write_seq.sv(23) @ 3790: uvm_test_top.my_env.agt_apb.seqr0@@my_seq [SEQ] Generate new item
UVM_INFO /home/st102/Training/projects/blue_sand/verif/seq/apb_read_write_seq.sv(24) @ 3790: uvm_test_top.my_env.agt_apb.seqr0@@my_seq [SEQ] Seq send PKT to Driver: ADDR = 0, pwrite = 1, pwdata = ce3994a3, prdata = 0, pslverr = 0, delay = 0
UVM_INFO /home/st102/Training/projects/blue_sand/verif/sv/driver_apb.sv(29) @ 3910: uvm_test_top.my_env.agt_apb.drv0 [drv0] Waiting for data from sequencer
UVM_INFO /home/st102/Training/projects/blue_sand/verif/seq/apb_read_write_seq.sv(23) @ 3910: uvm_test_top.my_env.agt_apb.seqr0@@my_seq [SEQ] Generate new item
UVM_INFO /home/st102/Training/projects/blue_sand/verif/seq/apb_read_write_seq.sv(24) @ 3910: uvm_test_top.my_env.agt_apb.seqr0@@my_seq [SEQ] Seq send PKT to Driver: ADDR = 0, pwrite = 1, pwdata = 4a9636e9, prdata = 0, pslverr = 0, delay = 0
UVM_INFO /home/st102/Training/projects/blue_sand/verif/sv/driver_apb.sv(29) @ 4030: uvm_test_top.my_env.agt_apb.drv0 [drv0] Waiting for data from sequencer
UVM_INFO /home/st102/Training/projects/blue_sand/verif/seq/apb_read_write_seq.sv(23) @ 4030: uvm_test_top.my_env.agt_apb.seqr0@@my_seq [SEQ] Generate new item
UVM_INFO /home/st102/Training/projects/blue_sand/verif/seq/apb_read_write_seq.sv(24) @ 4030: uvm_test_top.my_env.agt_apb.seqr0@@my_seq [SEQ] Seq send PKT to Driver: ADDR = 6, pwrite = 0, pwdata = 9c1bdc78, prdata = 0, pslverr = 0, delay = 1
UVM_INFO /home/st102/Training/projects/blue_sand/verif/sv/driver_apb.sv(29) @ 4170: uvm_test_top.my_env.agt_apb.drv0 [drv0] Waiting for data from sequencer
UVM_INFO /home/st102/Training/projects/blue_sand/verif/seq/apb_read_write_seq.sv(23) @ 4170: uvm_test_top.my_env.agt_apb.seqr0@@my_seq [SEQ] Generate new item
UVM_INFO /home/st102/Training/projects/blue_sand/verif/seq/apb_read_write_seq.sv(24) @ 4170: uvm_test_top.my_env.agt_apb.seqr0@@my_seq [SEQ] Seq send PKT to Driver: ADDR = 3, pwrite = 1, pwdata = 8a5d84bc, prdata = 0, pslverr = 0, delay = 3
UVM_INFO /home/st102/Training/projects/blue_sand/verif/sv/driver_apb.sv(29) @ 4350: uvm_test_top.my_env.agt_apb.drv0 [drv0] Waiting for data from sequencer
UVM_INFO /home/st102/Training/projects/blue_sand/verif/seq/apb_read_write_seq.sv(23) @ 4350: uvm_test_top.my_env.agt_apb.seqr0@@my_seq [SEQ] Generate new item
UVM_INFO /home/st102/Training/projects/blue_sand/verif/seq/apb_read_write_seq.sv(24) @ 4350: uvm_test_top.my_env.agt_apb.seqr0@@my_seq [SEQ] Seq send PKT to Driver: ADDR = 1, pwrite = 0, pwdata = 806c60f2, prdata = 0, pslverr = 0, delay = 1
UVM_INFO /home/st102/Training/projects/blue_sand/verif/sv/driver_apb.sv(29) @ 4490: uvm_test_top.my_env.agt_apb.drv0 [drv0] Waiting for data from sequencer
UVM_INFO /home/st102/Training/projects/blue_sand/verif/seq/apb_read_write_seq.sv(23) @ 4490: uvm_test_top.my_env.agt_apb.seqr0@@my_seq [SEQ] Generate new item
UVM_INFO /home/st102/Training/projects/blue_sand/verif/seq/apb_read_write_seq.sv(24) @ 4490: uvm_test_top.my_env.agt_apb.seqr0@@my_seq [SEQ] Seq send PKT to Driver: ADDR = 6, pwrite = 0, pwdata = 2a2f72ab, prdata = 0, pslverr = 0, delay = 3
UVM_INFO /home/st102/Training/projects/blue_sand/verif/sv/driver_apb.sv(29) @ 4670: uvm_test_top.my_env.agt_apb.drv0 [drv0] Waiting for data from sequencer
UVM_INFO /home/st102/Training/projects/blue_sand/verif/seq/apb_read_write_seq.sv(23) @ 4670: uvm_test_top.my_env.agt_apb.seqr0@@my_seq [SEQ] Generate new item
UVM_INFO /home/st102/Training/projects/blue_sand/verif/seq/apb_read_write_seq.sv(24) @ 4670: uvm_test_top.my_env.agt_apb.seqr0@@my_seq [SEQ] Seq send PKT to Driver: ADDR = 4, pwrite = 1, pwdata = be51def5, prdata = 0, pslverr = 0, delay = 3
UVM_INFO /home/st102/Training/projects/blue_sand/verif/sv/driver_apb.sv(29) @ 4850: uvm_test_top.my_env.agt_apb.drv0 [drv0] Waiting for data from sequencer
UVM_INFO /home/st102/Training/projects/blue_sand/verif/seq/apb_read_write_seq.sv(23) @ 4850: uvm_test_top.my_env.agt_apb.seqr0@@my_seq [SEQ] Generate new item
UVM_INFO /home/st102/Training/projects/blue_sand/verif/seq/apb_read_write_seq.sv(24) @ 4850: uvm_test_top.my_env.agt_apb.seqr0@@my_seq [SEQ] Seq send PKT to Driver: ADDR = 0, pwrite = 1, pwdata = a1247b4f, prdata = 0, pslverr = 0, delay = 4
UVM_INFO /home/st102/Training/projects/blue_sand/verif/sv/driver_apb.sv(29) @ 5050: uvm_test_top.my_env.agt_apb.drv0 [drv0] Waiting for data from sequencer
UVM_INFO /home/st102/Training/projects/blue_sand/verif/seq/apb_read_write_seq.sv(23) @ 5050: uvm_test_top.my_env.agt_apb.seqr0@@my_seq [SEQ] Generate new item
UVM_INFO /home/st102/Training/projects/blue_sand/verif/seq/apb_read_write_seq.sv(24) @ 5050: uvm_test_top.my_env.agt_apb.seqr0@@my_seq [SEQ] Seq send PKT to Driver: ADDR = 4, pwrite = 1, pwdata = 69fa514a, prdata = 0, pslverr = 0, delay = 2
UVM_INFO /home/st102/Training/projects/blue_sand/verif/sv/driver_apb.sv(29) @ 5210: uvm_test_top.my_env.agt_apb.drv0 [drv0] Waiting for data from sequencer
UVM_INFO /home/st102/Training/projects/blue_sand/verif/seq/apb_read_write_seq.sv(23) @ 5210: uvm_test_top.my_env.agt_apb.seqr0@@my_seq [SEQ] Generate new item
UVM_INFO /home/st102/Training/projects/blue_sand/verif/seq/apb_read_write_seq.sv(24) @ 5210: uvm_test_top.my_env.agt_apb.seqr0@@my_seq [SEQ] Seq send PKT to Driver: ADDR = 4, pwrite = 0, pwdata = a4f21322, prdata = 0, pslverr = 0, delay = 3
UVM_INFO /home/st102/Training/projects/blue_sand/verif/sv/driver_apb.sv(29) @ 5390: uvm_test_top.my_env.agt_apb.drv0 [drv0] Waiting for data from sequencer
UVM_INFO /home/st102/Training/projects/blue_sand/verif/seq/apb_read_write_seq.sv(23) @ 5390: uvm_test_top.my_env.agt_apb.seqr0@@my_seq [SEQ] Generate new item
UVM_INFO /home/st102/Training/projects/blue_sand/verif/seq/apb_read_write_seq.sv(24) @ 5390: uvm_test_top.my_env.agt_apb.seqr0@@my_seq [SEQ] Seq send PKT to Driver: ADDR = 2, pwrite = 1, pwdata = 362fc57f, prdata = 0, pslverr = 0, delay = 2
UVM_INFO /home/st102/Training/projects/blue_sand/verif/sv/driver_apb.sv(29) @ 5550: uvm_test_top.my_env.agt_apb.drv0 [drv0] Waiting for data from sequencer
UVM_INFO /home/st102/Training/projects/blue_sand/verif/seq/apb_read_write_seq.sv(23) @ 5550: uvm_test_top.my_env.agt_apb.seqr0@@my_seq [SEQ] Generate new item
UVM_INFO /home/st102/Training/projects/blue_sand/verif/seq/apb_read_write_seq.sv(24) @ 5550: uvm_test_top.my_env.agt_apb.seqr0@@my_seq [SEQ] Seq send PKT to Driver: ADDR = 5, pwrite = 0, pwdata = 8c640a4b, prdata = 0, pslverr = 0, delay = 5
UVM_ERROR /home/st102/Training/projects/blue_sand/verif/sv/scoreboard_counter.sv(77) @ 5670: uvm_test_top.my_env.scbd_counter [SCB] Mismatch [READ] @0x5: exp = 0x0 act = 0x6e
UVM_INFO /home/st102/Training/projects/blue_sand/verif/sv/driver_apb.sv(29) @ 5770: uvm_test_top.my_env.agt_apb.drv0 [drv0] Waiting for data from sequencer
UVM_INFO /home/st102/Training/projects/blue_sand/verif/seq/apb_read_write_seq.sv(23) @ 5770: uvm_test_top.my_env.agt_apb.seqr0@@my_seq [SEQ] Generate new item
UVM_INFO /home/st102/Training/projects/blue_sand/verif/seq/apb_read_write_seq.sv(24) @ 5770: uvm_test_top.my_env.agt_apb.seqr0@@my_seq [SEQ] Seq send PKT to Driver: ADDR = 2, pwrite = 0, pwdata = c29782c4, prdata = 0, pslverr = 0, delay = 1
UVM_INFO /home/st102/Training/projects/blue_sand/verif/sv/driver_apb.sv(29) @ 5910: uvm_test_top.my_env.agt_apb.drv0 [drv0] Waiting for data from sequencer
UVM_INFO /home/st102/Training/projects/blue_sand/verif/seq/apb_read_write_seq.sv(23) @ 5910: uvm_test_top.my_env.agt_apb.seqr0@@my_seq [SEQ] Generate new item
UVM_INFO /home/st102/Training/projects/blue_sand/verif/seq/apb_read_write_seq.sv(24) @ 5910: uvm_test_top.my_env.agt_apb.seqr0@@my_seq [SEQ] Seq send PKT to Driver: ADDR = 3, pwrite = 0, pwdata = 79167567, prdata = 0, pslverr = 0, delay = 3
UVM_INFO /home/st102/Training/projects/blue_sand/verif/sv/driver_apb.sv(29) @ 6090: uvm_test_top.my_env.agt_apb.drv0 [drv0] Waiting for data from sequencer
UVM_INFO /home/st102/Training/projects/blue_sand/verif/seq/apb_read_write_seq.sv(23) @ 6090: uvm_test_top.my_env.agt_apb.seqr0@@my_seq [SEQ] Generate new item
UVM_INFO /home/st102/Training/projects/blue_sand/verif/seq/apb_read_write_seq.sv(24) @ 6090: uvm_test_top.my_env.agt_apb.seqr0@@my_seq [SEQ] Seq send PKT to Driver: ADDR = 4, pwrite = 1, pwdata = 7bbd8706, prdata = 0, pslverr = 0, delay = 5
UVM_INFO /home/st102/Training/projects/blue_sand/verif/sv/driver_apb.sv(29) @ 6310: uvm_test_top.my_env.agt_apb.drv0 [drv0] Waiting for data from sequencer
UVM_INFO /home/st102/Training/projects/blue_sand/verif/seq/apb_read_write_seq.sv(23) @ 6310: uvm_test_top.my_env.agt_apb.seqr0@@my_seq [SEQ] Generate new item
UVM_INFO /home/st102/Training/projects/blue_sand/verif/seq/apb_read_write_seq.sv(24) @ 6310: uvm_test_top.my_env.agt_apb.seqr0@@my_seq [SEQ] Seq send PKT to Driver: ADDR = 4, pwrite = 0, pwdata = 141247f9, prdata = 0, pslverr = 0, delay = 4
UVM_INFO /home/st102/Training/projects/blue_sand/verif/sv/driver_apb.sv(29) @ 6510: uvm_test_top.my_env.agt_apb.drv0 [drv0] Waiting for data from sequencer
UVM_INFO /home/st102/Training/projects/blue_sand/verif/seq/apb_read_write_seq.sv(23) @ 6510: uvm_test_top.my_env.agt_apb.seqr0@@my_seq [SEQ] Generate new item
UVM_INFO /home/st102/Training/projects/blue_sand/verif/seq/apb_read_write_seq.sv(24) @ 6510: uvm_test_top.my_env.agt_apb.seqr0@@my_seq [SEQ] Seq send PKT to Driver: ADDR = 4, pwrite = 1, pwdata = ae458a45, prdata = 0, pslverr = 0, delay = 4
UVM_INFO /home/st102/Training/projects/blue_sand/verif/sv/driver_apb.sv(29) @ 6710: uvm_test_top.my_env.agt_apb.drv0 [drv0] Waiting for data from sequencer
UVM_INFO /home/st102/Training/projects/blue_sand/verif/seq/apb_read_write_seq.sv(23) @ 6710: uvm_test_top.my_env.agt_apb.seqr0@@my_seq [SEQ] Generate new item
UVM_INFO /home/st102/Training/projects/blue_sand/verif/seq/apb_read_write_seq.sv(24) @ 6710: uvm_test_top.my_env.agt_apb.seqr0@@my_seq [SEQ] Seq send PKT to Driver: ADDR = 1, pwrite = 0, pwdata = d53c8d80, prdata = 0, pslverr = 0, delay = 2
UVM_INFO /home/st102/Training/projects/blue_sand/verif/sv/driver_apb.sv(29) @ 6870: uvm_test_top.my_env.agt_apb.drv0 [drv0] Waiting for data from sequencer
UVM_INFO /home/st102/Training/projects/blue_sand/verif/seq/apb_read_write_seq.sv(23) @ 6870: uvm_test_top.my_env.agt_apb.seqr0@@my_seq [SEQ] Generate new item
UVM_INFO /home/st102/Training/projects/blue_sand/verif/seq/apb_read_write_seq.sv(24) @ 6870: uvm_test_top.my_env.agt_apb.seqr0@@my_seq [SEQ] Seq send PKT to Driver: ADDR = 4, pwrite = 0, pwdata = cbf915a7, prdata = 0, pslverr = 0, delay = 0
UVM_INFO /home/st102/Training/projects/blue_sand/verif/sv/driver_apb.sv(29) @ 6990: uvm_test_top.my_env.agt_apb.drv0 [drv0] Waiting for data from sequencer
UVM_INFO /home/st102/Training/projects/blue_sand/verif/seq/apb_read_write_seq.sv(23) @ 6990: uvm_test_top.my_env.agt_apb.seqr0@@my_seq [SEQ] Generate new item
UVM_INFO /home/st102/Training/projects/blue_sand/verif/seq/apb_read_write_seq.sv(24) @ 6990: uvm_test_top.my_env.agt_apb.seqr0@@my_seq [SEQ] Seq send PKT to Driver: ADDR = 2, pwrite = 0, pwdata = ed1962bc, prdata = 0, pslverr = 0, delay = 5
UVM_INFO /home/st102/Training/projects/blue_sand/verif/sv/driver_apb.sv(29) @ 7210: uvm_test_top.my_env.agt_apb.drv0 [drv0] Waiting for data from sequencer
UVM_INFO /home/st102/Training/projects/blue_sand/verif/seq/apb_read_write_seq.sv(23) @ 7210: uvm_test_top.my_env.agt_apb.seqr0@@my_seq [SEQ] Generate new item
UVM_INFO /home/st102/Training/projects/blue_sand/verif/seq/apb_read_write_seq.sv(24) @ 7210: uvm_test_top.my_env.agt_apb.seqr0@@my_seq [SEQ] Seq send PKT to Driver: ADDR = 5, pwrite = 0, pwdata = 60899b5d, prdata = 0, pslverr = 0, delay = 2
UVM_ERROR /home/st102/Training/projects/blue_sand/verif/sv/scoreboard_counter.sv(77) @ 7330: uvm_test_top.my_env.scbd_counter [SCB] Mismatch [READ] @0x5: exp = 0x0 act = 0x6e
UVM_INFO /home/st102/Training/projects/blue_sand/verif/sv/driver_apb.sv(29) @ 7370: uvm_test_top.my_env.agt_apb.drv0 [drv0] Waiting for data from sequencer
UVM_INFO /home/st102/Training/projects/blue_sand/verif/seq/apb_read_write_seq.sv(23) @ 7370: uvm_test_top.my_env.agt_apb.seqr0@@my_seq [SEQ] Generate new item
UVM_INFO /home/st102/Training/projects/blue_sand/verif/seq/apb_read_write_seq.sv(24) @ 7370: uvm_test_top.my_env.agt_apb.seqr0@@my_seq [SEQ] Seq send PKT to Driver: ADDR = 1, pwrite = 0, pwdata = 5ad2360f, prdata = 0, pslverr = 0, delay = 4
UVM_INFO /home/st102/Training/projects/blue_sand/verif/sv/driver_apb.sv(29) @ 7570: uvm_test_top.my_env.agt_apb.drv0 [drv0] Waiting for data from sequencer
UVM_INFO /home/st102/Training/projects/blue_sand/verif/seq/apb_read_write_seq.sv(23) @ 7570: uvm_test_top.my_env.agt_apb.seqr0@@my_seq [SEQ] Generate new item
UVM_INFO /home/st102/Training/projects/blue_sand/verif/seq/apb_read_write_seq.sv(24) @ 7570: uvm_test_top.my_env.agt_apb.seqr0@@my_seq [SEQ] Seq send PKT to Driver: ADDR = 5, pwrite = 1, pwdata = 748d1aa6, prdata = 0, pslverr = 0, delay = 0
UVM_INFO /home/st102/Training/projects/blue_sand/verif/sv/driver_apb.sv(29) @ 7690: uvm_test_top.my_env.agt_apb.drv0 [drv0] Waiting for data from sequencer
UVM_INFO /home/st102/Training/projects/blue_sand/verif/seq/apb_read_write_seq.sv(23) @ 7690: uvm_test_top.my_env.agt_apb.seqr0@@my_seq [SEQ] Generate new item
UVM_INFO /home/st102/Training/projects/blue_sand/verif/seq/apb_read_write_seq.sv(24) @ 7690: uvm_test_top.my_env.agt_apb.seqr0@@my_seq [SEQ] Seq send PKT to Driver: ADDR = 2, pwrite = 1, pwdata = ba19dce9, prdata = 0, pslverr = 0, delay = 3
UVM_INFO /home/st102/Training/projects/blue_sand/verif/sv/driver_apb.sv(29) @ 7870: uvm_test_top.my_env.agt_apb.drv0 [drv0] Waiting for data from sequencer
UVM_INFO /home/st102/Training/projects/blue_sand/verif/seq/apb_read_write_seq.sv(23) @ 7870: uvm_test_top.my_env.agt_apb.seqr0@@my_seq [SEQ] Generate new item
UVM_INFO /home/st102/Training/projects/blue_sand/verif/seq/apb_read_write_seq.sv(24) @ 7870: uvm_test_top.my_env.agt_apb.seqr0@@my_seq [SEQ] Seq send PKT to Driver: ADDR = 5, pwrite = 1, pwdata = e25736c8, prdata = 0, pslverr = 0, delay = 4
UVM_INFO /home/st102/Training/projects/blue_sand/verif/sv/driver_apb.sv(29) @ 8070: uvm_test_top.my_env.agt_apb.drv0 [drv0] Waiting for data from sequencer
UVM_INFO /home/st102/Training/projects/blue_sand/verif/seq/apb_read_write_seq.sv(23) @ 8070: uvm_test_top.my_env.agt_apb.seqr0@@my_seq [SEQ] Generate new item
UVM_INFO /home/st102/Training/projects/blue_sand/verif/seq/apb_read_write_seq.sv(24) @ 8070: uvm_test_top.my_env.agt_apb.seqr0@@my_seq [SEQ] Seq send PKT to Driver: ADDR = 3, pwrite = 0, pwdata = 94156dad, prdata = 0, pslverr = 0, delay = 0
UVM_INFO /home/st102/Training/projects/blue_sand/verif/sv/driver_apb.sv(29) @ 8190: uvm_test_top.my_env.agt_apb.drv0 [drv0] Waiting for data from sequencer
UVM_INFO /home/st102/Training/projects/blue_sand/verif/seq/apb_read_write_seq.sv(23) @ 8190: uvm_test_top.my_env.agt_apb.seqr0@@my_seq [SEQ] Generate new item
UVM_INFO /home/st102/Training/projects/blue_sand/verif/seq/apb_read_write_seq.sv(24) @ 8190: uvm_test_top.my_env.agt_apb.seqr0@@my_seq [SEQ] Seq send PKT to Driver: ADDR = 6, pwrite = 0, pwdata = aeae86e, prdata = 0, pslverr = 0, delay = 2
UVM_INFO /home/st102/Training/projects/blue_sand/verif/sv/driver_apb.sv(29) @ 8350: uvm_test_top.my_env.agt_apb.drv0 [drv0] Waiting for data from sequencer
UVM_INFO /home/st102/Training/projects/blue_sand/verif/seq/apb_read_write_seq.sv(23) @ 8350: uvm_test_top.my_env.agt_apb.seqr0@@my_seq [SEQ] Generate new item
UVM_INFO /home/st102/Training/projects/blue_sand/verif/seq/apb_read_write_seq.sv(24) @ 8350: uvm_test_top.my_env.agt_apb.seqr0@@my_seq [SEQ] Seq send PKT to Driver: ADDR = 4, pwrite = 1, pwdata = 71c0bf1d, prdata = 0, pslverr = 0, delay = 4
UVM_INFO /home/st102/Training/projects/blue_sand/verif/sv/driver_apb.sv(29) @ 8550: uvm_test_top.my_env.agt_apb.drv0 [drv0] Waiting for data from sequencer
UVM_INFO /home/st102/Training/projects/blue_sand/verif/seq/apb_read_write_seq.sv(23) @ 8550: uvm_test_top.my_env.agt_apb.seqr0@@my_seq [SEQ] Generate new item
UVM_INFO /home/st102/Training/projects/blue_sand/verif/seq/apb_read_write_seq.sv(24) @ 8550: uvm_test_top.my_env.agt_apb.seqr0@@my_seq [SEQ] Seq send PKT to Driver: ADDR = 6, pwrite = 1, pwdata = 6bb5ccfb, prdata = 0, pslverr = 0, delay = 4
UVM_INFO /home/st102/Training/projects/blue_sand/verif/sv/driver_apb.sv(29) @ 8750: uvm_test_top.my_env.agt_apb.drv0 [drv0] Waiting for data from sequencer
UVM_INFO /home/st102/Training/projects/blue_sand/verif/seq/apb_read_write_seq.sv(23) @ 8750: uvm_test_top.my_env.agt_apb.seqr0@@my_seq [SEQ] Generate new item
UVM_INFO /home/st102/Training/projects/blue_sand/verif/seq/apb_read_write_seq.sv(24) @ 8750: uvm_test_top.my_env.agt_apb.seqr0@@my_seq [SEQ] Seq send PKT to Driver: ADDR = 3, pwrite = 1, pwdata = 49246d0d, prdata = 0, pslverr = 0, delay = 5
UVM_INFO /home/st102/Training/projects/blue_sand/verif/sv/driver_apb.sv(29) @ 8970: uvm_test_top.my_env.agt_apb.drv0 [drv0] Waiting for data from sequencer
UVM_INFO /home/st102/Training/projects/blue_sand/verif/seq/apb_read_write_seq.sv(23) @ 8970: uvm_test_top.my_env.agt_apb.seqr0@@my_seq [SEQ] Generate new item
UVM_INFO /home/st102/Training/projects/blue_sand/verif/seq/apb_read_write_seq.sv(24) @ 8970: uvm_test_top.my_env.agt_apb.seqr0@@my_seq [SEQ] Seq send PKT to Driver: ADDR = 1, pwrite = 0, pwdata = 43558553, prdata = 0, pslverr = 0, delay = 4
UVM_INFO /home/st102/Training/projects/blue_sand/verif/sv/driver_apb.sv(29) @ 9170: uvm_test_top.my_env.agt_apb.drv0 [drv0] Waiting for data from sequencer
UVM_INFO /home/st102/Training/projects/blue_sand/verif/seq/apb_read_write_seq.sv(23) @ 9170: uvm_test_top.my_env.agt_apb.seqr0@@my_seq [SEQ] Generate new item
UVM_INFO /home/st102/Training/projects/blue_sand/verif/seq/apb_read_write_seq.sv(24) @ 9170: uvm_test_top.my_env.agt_apb.seqr0@@my_seq [SEQ] Seq send PKT to Driver: ADDR = 4, pwrite = 1, pwdata = 9cfe2418, prdata = 0, pslverr = 0, delay = 4
UVM_INFO /home/st102/Training/projects/blue_sand/verif/sv/driver_apb.sv(29) @ 9370: uvm_test_top.my_env.agt_apb.drv0 [drv0] Waiting for data from sequencer
UVM_INFO /home/st102/Training/projects/blue_sand/verif/seq/apb_read_write_seq.sv(23) @ 9370: uvm_test_top.my_env.agt_apb.seqr0@@my_seq [SEQ] Generate new item
UVM_INFO /home/st102/Training/projects/blue_sand/verif/seq/apb_read_write_seq.sv(24) @ 9370: uvm_test_top.my_env.agt_apb.seqr0@@my_seq [SEQ] Seq send PKT to Driver: ADDR = 6, pwrite = 0, pwdata = 68961e23, prdata = 0, pslverr = 0, delay = 0
UVM_INFO /home/st102/Training/projects/blue_sand/verif/sv/driver_apb.sv(29) @ 9490: uvm_test_top.my_env.agt_apb.drv0 [drv0] Waiting for data from sequencer
UVM_INFO /home/st102/Training/projects/blue_sand/verif/seq/apb_read_write_seq.sv(23) @ 9490: uvm_test_top.my_env.agt_apb.seqr0@@my_seq [SEQ] Generate new item
UVM_INFO /home/st102/Training/projects/blue_sand/verif/seq/apb_read_write_seq.sv(24) @ 9490: uvm_test_top.my_env.agt_apb.seqr0@@my_seq [SEQ] Seq send PKT to Driver: ADDR = 3, pwrite = 1, pwdata = 3c14560f, prdata = 0, pslverr = 0, delay = 5
UVM_INFO /home/st102/Training/projects/blue_sand/verif/sv/driver_apb.sv(29) @ 9710: uvm_test_top.my_env.agt_apb.drv0 [drv0] Waiting for data from sequencer
UVM_INFO /home/st102/Training/projects/blue_sand/verif/seq/apb_read_write_seq.sv(23) @ 9710: uvm_test_top.my_env.agt_apb.seqr0@@my_seq [SEQ] Generate new item
UVM_INFO /home/st102/Training/projects/blue_sand/verif/seq/apb_read_write_seq.sv(24) @ 9710: uvm_test_top.my_env.agt_apb.seqr0@@my_seq [SEQ] Seq send PKT to Driver: ADDR = 3, pwrite = 0, pwdata = 1f72544c, prdata = 0, pslverr = 0, delay = 1
UVM_INFO /home/st102/Training/projects/blue_sand/verif/sv/driver_apb.sv(29) @ 9850: uvm_test_top.my_env.agt_apb.drv0 [drv0] Waiting for data from sequencer
UVM_INFO /home/st102/Training/projects/blue_sand/verif/seq/apb_read_write_seq.sv(23) @ 9850: uvm_test_top.my_env.agt_apb.seqr0@@my_seq [SEQ] Generate new item
UVM_INFO /home/st102/Training/projects/blue_sand/verif/seq/apb_read_write_seq.sv(24) @ 9850: uvm_test_top.my_env.agt_apb.seqr0@@my_seq [SEQ] Seq send PKT to Driver: ADDR = 2, pwrite = 1, pwdata = 89856b7f, prdata = 0, pslverr = 0, delay = 0
UVM_INFO /home/st102/Training/projects/blue_sand/verif/sv/driver_apb.sv(29) @ 9970: uvm_test_top.my_env.agt_apb.drv0 [drv0] Waiting for data from sequencer
UVM_INFO /home/st102/Training/projects/blue_sand/verif/seq/apb_read_write_seq.sv(23) @ 9970: uvm_test_top.my_env.agt_apb.seqr0@@my_seq [SEQ] Generate new item
UVM_INFO /home/st102/Training/projects/blue_sand/verif/seq/apb_read_write_seq.sv(24) @ 9970: uvm_test_top.my_env.agt_apb.seqr0@@my_seq [SEQ] Seq send PKT to Driver: ADDR = 6, pwrite = 0, pwdata = a7dc44c2, prdata = 0, pslverr = 0, delay = 3
UVM_INFO /home/st102/Training/projects/blue_sand/verif/sv/driver_apb.sv(29) @ 10150: uvm_test_top.my_env.agt_apb.drv0 [drv0] Waiting for data from sequencer
UVM_INFO /home/st102/Training/projects/blue_sand/verif/seq/apb_read_write_seq.sv(23) @ 10150: uvm_test_top.my_env.agt_apb.seqr0@@my_seq [SEQ] Generate new item
UVM_INFO /home/st102/Training/projects/blue_sand/verif/seq/apb_read_write_seq.sv(24) @ 10150: uvm_test_top.my_env.agt_apb.seqr0@@my_seq [SEQ] Seq send PKT to Driver: ADDR = 2, pwrite = 0, pwdata = 19c76f75, prdata = 0, pslverr = 0, delay = 1
UVM_INFO /home/st102/Training/projects/blue_sand/verif/sv/driver_apb.sv(29) @ 10290: uvm_test_top.my_env.agt_apb.drv0 [drv0] Waiting for data from sequencer
UVM_INFO /home/st102/Training/projects/blue_sand/verif/seq/apb_read_write_seq.sv(23) @ 10290: uvm_test_top.my_env.agt_apb.seqr0@@my_seq [SEQ] Generate new item
UVM_INFO /home/st102/Training/projects/blue_sand/verif/seq/apb_read_write_seq.sv(24) @ 10290: uvm_test_top.my_env.agt_apb.seqr0@@my_seq [SEQ] Seq send PKT to Driver: ADDR = 3, pwrite = 1, pwdata = cf2d6b6d, prdata = 0, pslverr = 0, delay = 2
UVM_INFO /home/st102/Training/projects/blue_sand/verif/sv/driver_apb.sv(29) @ 10450: uvm_test_top.my_env.agt_apb.drv0 [drv0] Waiting for data from sequencer
UVM_INFO /home/st102/Training/projects/blue_sand/verif/seq/apb_read_write_seq.sv(23) @ 10450: uvm_test_top.my_env.agt_apb.seqr0@@my_seq [SEQ] Generate new item
UVM_INFO /home/st102/Training/projects/blue_sand/verif/seq/apb_read_write_seq.sv(24) @ 10450: uvm_test_top.my_env.agt_apb.seqr0@@my_seq [SEQ] Seq send PKT to Driver: ADDR = 6, pwrite = 0, pwdata = 7ff410db, prdata = 0, pslverr = 0, delay = 2
UVM_INFO /home/st102/Training/projects/blue_sand/verif/sv/driver_apb.sv(29) @ 10610: uvm_test_top.my_env.agt_apb.drv0 [drv0] Waiting for data from sequencer
UVM_INFO /home/st102/Training/projects/blue_sand/verif/seq/apb_read_write_seq.sv(23) @ 10610: uvm_test_top.my_env.agt_apb.seqr0@@my_seq [SEQ] Generate new item
UVM_INFO /home/st102/Training/projects/blue_sand/verif/seq/apb_read_write_seq.sv(24) @ 10610: uvm_test_top.my_env.agt_apb.seqr0@@my_seq [SEQ] Seq send PKT to Driver: ADDR = 6, pwrite = 0, pwdata = 1e5c075e, prdata = 0, pslverr = 0, delay = 5
UVM_INFO /home/st102/Training/projects/blue_sand/verif/sv/driver_apb.sv(29) @ 10830: uvm_test_top.my_env.agt_apb.drv0 [drv0] Waiting for data from sequencer
UVM_INFO /home/st102/Training/projects/blue_sand/verif/seq/apb_read_write_seq.sv(23) @ 10830: uvm_test_top.my_env.agt_apb.seqr0@@my_seq [SEQ] Generate new item
UVM_INFO /home/st102/Training/projects/blue_sand/verif/seq/apb_read_write_seq.sv(24) @ 10830: uvm_test_top.my_env.agt_apb.seqr0@@my_seq [SEQ] Seq send PKT to Driver: ADDR = 2, pwrite = 0, pwdata = 3c751268, prdata = 0, pslverr = 0, delay = 1
UVM_INFO /home/st102/Training/projects/blue_sand/verif/sv/driver_apb.sv(29) @ 10970: uvm_test_top.my_env.agt_apb.drv0 [drv0] Waiting for data from sequencer
UVM_INFO /home/st102/Training/projects/blue_sand/verif/seq/apb_read_write_seq.sv(23) @ 10970: uvm_test_top.my_env.agt_apb.seqr0@@my_seq [SEQ] Generate new item
UVM_INFO /home/st102/Training/projects/blue_sand/verif/seq/apb_read_write_seq.sv(24) @ 10970: uvm_test_top.my_env.agt_apb.seqr0@@my_seq [SEQ] Seq send PKT to Driver: ADDR = 2, pwrite = 0, pwdata = 3d3411bf, prdata = 0, pslverr = 0, delay = 2
UVM_INFO /home/st102/Training/projects/blue_sand/verif/sv/driver_apb.sv(29) @ 11130: uvm_test_top.my_env.agt_apb.drv0 [drv0] Waiting for data from sequencer
UVM_INFO /home/st102/Training/projects/blue_sand/verif/seq/apb_read_write_seq.sv(23) @ 11130: uvm_test_top.my_env.agt_apb.seqr0@@my_seq [SEQ] Generate new item
UVM_INFO /home/st102/Training/projects/blue_sand/verif/seq/apb_read_write_seq.sv(24) @ 11130: uvm_test_top.my_env.agt_apb.seqr0@@my_seq [SEQ] Seq send PKT to Driver: ADDR = 1, pwrite = 0, pwdata = 364212f8, prdata = 0, pslverr = 0, delay = 5
UVM_INFO /home/st102/Training/projects/blue_sand/verif/sv/driver_apb.sv(29) @ 11350: uvm_test_top.my_env.agt_apb.drv0 [drv0] Waiting for data from sequencer
UVM_INFO /home/st102/Training/projects/blue_sand/verif/seq/apb_read_write_seq.sv(23) @ 11350: uvm_test_top.my_env.agt_apb.seqr0@@my_seq [SEQ] Generate new item
UVM_INFO /home/st102/Training/projects/blue_sand/verif/seq/apb_read_write_seq.sv(24) @ 11350: uvm_test_top.my_env.agt_apb.seqr0@@my_seq [SEQ] Seq send PKT to Driver: ADDR = 0, pwrite = 1, pwdata = 9d56e80d, prdata = 0, pslverr = 0, delay = 4
UVM_INFO /home/st102/Training/projects/blue_sand/verif/sv/driver_apb.sv(29) @ 11550: uvm_test_top.my_env.agt_apb.drv0 [drv0] Waiting for data from sequencer
UVM_INFO /home/st102/Training/projects/blue_sand/verif/seq/apb_read_write_seq.sv(23) @ 11550: uvm_test_top.my_env.agt_apb.seqr0@@my_seq [SEQ] Generate new item
UVM_INFO /home/st102/Training/projects/blue_sand/verif/seq/apb_read_write_seq.sv(24) @ 11550: uvm_test_top.my_env.agt_apb.seqr0@@my_seq [SEQ] Seq send PKT to Driver: ADDR = 1, pwrite = 1, pwdata = fac8a1d2, prdata = 0, pslverr = 0, delay = 2
UVM_INFO /home/st102/Training/projects/blue_sand/verif/sv/driver_apb.sv(29) @ 11710: uvm_test_top.my_env.agt_apb.drv0 [drv0] Waiting for data from sequencer
UVM_INFO /home/st102/Training/projects/blue_sand/verif/seq/apb_read_write_seq.sv(23) @ 11710: uvm_test_top.my_env.agt_apb.seqr0@@my_seq [SEQ] Generate new item
UVM_INFO /home/st102/Training/projects/blue_sand/verif/seq/apb_read_write_seq.sv(24) @ 11710: uvm_test_top.my_env.agt_apb.seqr0@@my_seq [SEQ] Seq send PKT to Driver: ADDR = 0, pwrite = 1, pwdata = 6c70bf8c, prdata = 0, pslverr = 0, delay = 1
UVM_INFO /home/st102/Training/projects/blue_sand/verif/sv/driver_apb.sv(29) @ 11850: uvm_test_top.my_env.agt_apb.drv0 [drv0] Waiting for data from sequencer
UVM_INFO /home/st102/Training/projects/blue_sand/verif/seq/apb_read_write_seq.sv(23) @ 11850: uvm_test_top.my_env.agt_apb.seqr0@@my_seq [SEQ] Generate new item
UVM_INFO /home/st102/Training/projects/blue_sand/verif/seq/apb_read_write_seq.sv(24) @ 11850: uvm_test_top.my_env.agt_apb.seqr0@@my_seq [SEQ] Seq send PKT to Driver: ADDR = 5, pwrite = 1, pwdata = 143f54b9, prdata = 0, pslverr = 0, delay = 4
UVM_INFO /home/st102/Training/projects/blue_sand/verif/sv/driver_apb.sv(29) @ 12050: uvm_test_top.my_env.agt_apb.drv0 [drv0] Waiting for data from sequencer
UVM_INFO /home/st102/Training/projects/blue_sand/verif/seq/apb_read_write_seq.sv(23) @ 12050: uvm_test_top.my_env.agt_apb.seqr0@@my_seq [SEQ] Generate new item
UVM_INFO /home/st102/Training/projects/blue_sand/verif/seq/apb_read_write_seq.sv(24) @ 12050: uvm_test_top.my_env.agt_apb.seqr0@@my_seq [SEQ] Seq send PKT to Driver: ADDR = 3, pwrite = 1, pwdata = da64550, prdata = 0, pslverr = 0, delay = 2
UVM_INFO /home/st102/Training/projects/blue_sand/verif/sv/driver_apb.sv(29) @ 12210: uvm_test_top.my_env.agt_apb.drv0 [drv0] Waiting for data from sequencer
UVM_INFO /home/st102/Training/projects/blue_sand/verif/seq/apb_read_write_seq.sv(23) @ 12210: uvm_test_top.my_env.agt_apb.seqr0@@my_seq [SEQ] Generate new item
UVM_INFO /home/st102/Training/projects/blue_sand/verif/seq/apb_read_write_seq.sv(24) @ 12210: uvm_test_top.my_env.agt_apb.seqr0@@my_seq [SEQ] Seq send PKT to Driver: ADDR = 2, pwrite = 0, pwdata = d19f14a4, prdata = 0, pslverr = 0, delay = 3
UVM_INFO /home/st102/Training/projects/blue_sand/verif/sv/driver_apb.sv(29) @ 12390: uvm_test_top.my_env.agt_apb.drv0 [drv0] Waiting for data from sequencer
UVM_INFO /home/st102/Training/projects/blue_sand/verif/seq/apb_read_write_seq.sv(23) @ 12390: uvm_test_top.my_env.agt_apb.seqr0@@my_seq [SEQ] Generate new item
UVM_INFO /home/st102/Training/projects/blue_sand/verif/seq/apb_read_write_seq.sv(24) @ 12390: uvm_test_top.my_env.agt_apb.seqr0@@my_seq [SEQ] Seq send PKT to Driver: ADDR = 3, pwrite = 1, pwdata = 184e1b9c, prdata = 0, pslverr = 0, delay = 1
UVM_INFO /home/st102/Training/projects/blue_sand/verif/sv/driver_apb.sv(29) @ 12530: uvm_test_top.my_env.agt_apb.drv0 [drv0] Waiting for data from sequencer
UVM_INFO /home/st102/Training/projects/blue_sand/verif/seq/apb_read_write_seq.sv(23) @ 12530: uvm_test_top.my_env.agt_apb.seqr0@@my_seq [SEQ] Generate new item
UVM_INFO /home/st102/Training/projects/blue_sand/verif/seq/apb_read_write_seq.sv(24) @ 12530: uvm_test_top.my_env.agt_apb.seqr0@@my_seq [SEQ] Seq send PKT to Driver: ADDR = 0, pwrite = 1, pwdata = a054f995, prdata = 0, pslverr = 0, delay = 3
UVM_INFO /home/st102/Training/projects/blue_sand/verif/sv/driver_apb.sv(29) @ 12710: uvm_test_top.my_env.agt_apb.drv0 [drv0] Waiting for data from sequencer
UVM_INFO /home/st102/Training/projects/blue_sand/verif/seq/apb_read_write_seq.sv(23) @ 12710: uvm_test_top.my_env.agt_apb.seqr0@@my_seq [SEQ] Generate new item
UVM_INFO /home/st102/Training/projects/blue_sand/verif/seq/apb_read_write_seq.sv(24) @ 12710: uvm_test_top.my_env.agt_apb.seqr0@@my_seq [SEQ] Seq send PKT to Driver: ADDR = 6, pwrite = 1, pwdata = bfd45e84, prdata = 0, pslverr = 0, delay = 5
UVM_INFO /home/st102/Training/projects/blue_sand/verif/sv/driver_apb.sv(29) @ 12930: uvm_test_top.my_env.agt_apb.drv0 [drv0] Waiting for data from sequencer
UVM_INFO /home/st102/Training/projects/blue_sand/verif/seq/apb_read_write_seq.sv(23) @ 12930: uvm_test_top.my_env.agt_apb.seqr0@@my_seq [SEQ] Generate new item
UVM_INFO /home/st102/Training/projects/blue_sand/verif/seq/apb_read_write_seq.sv(24) @ 12930: uvm_test_top.my_env.agt_apb.seqr0@@my_seq [SEQ] Seq send PKT to Driver: ADDR = 2, pwrite = 1, pwdata = ef9fffbd, prdata = 0, pslverr = 0, delay = 1
UVM_INFO /home/st102/Training/projects/blue_sand/verif/sv/driver_apb.sv(29) @ 13070: uvm_test_top.my_env.agt_apb.drv0 [drv0] Waiting for data from sequencer
UVM_INFO /home/st102/Training/projects/blue_sand/verif/seq/apb_read_write_seq.sv(23) @ 13070: uvm_test_top.my_env.agt_apb.seqr0@@my_seq [SEQ] Generate new item
UVM_INFO /home/st102/Training/projects/blue_sand/verif/seq/apb_read_write_seq.sv(24) @ 13070: uvm_test_top.my_env.agt_apb.seqr0@@my_seq [SEQ] Seq send PKT to Driver: ADDR = 3, pwrite = 1, pwdata = 45cf53d3, prdata = 0, pslverr = 0, delay = 2
UVM_INFO /home/st102/Training/projects/blue_sand/verif/sv/driver_apb.sv(29) @ 13230: uvm_test_top.my_env.agt_apb.drv0 [drv0] Waiting for data from sequencer
UVM_INFO /home/st102/Training/projects/blue_sand/verif/seq/apb_read_write_seq.sv(23) @ 13230: uvm_test_top.my_env.agt_apb.seqr0@@my_seq [SEQ] Generate new item
UVM_INFO /home/st102/Training/projects/blue_sand/verif/seq/apb_read_write_seq.sv(24) @ 13230: uvm_test_top.my_env.agt_apb.seqr0@@my_seq [SEQ] Seq send PKT to Driver: ADDR = 6, pwrite = 0, pwdata = 14bfd997, prdata = 0, pslverr = 0, delay = 2
UVM_INFO /home/st102/Training/projects/blue_sand/verif/sv/driver_apb.sv(29) @ 13390: uvm_test_top.my_env.agt_apb.drv0 [drv0] Waiting for data from sequencer
UVM_INFO /home/st102/Training/projects/blue_sand/verif/seq/apb_read_write_seq.sv(23) @ 13390: uvm_test_top.my_env.agt_apb.seqr0@@my_seq [SEQ] Generate new item
UVM_INFO /home/st102/Training/projects/blue_sand/verif/seq/apb_read_write_seq.sv(24) @ 13390: uvm_test_top.my_env.agt_apb.seqr0@@my_seq [SEQ] Seq send PKT to Driver: ADDR = 4, pwrite = 0, pwdata = 180e9ad8, prdata = 0, pslverr = 0, delay = 0
UVM_INFO /home/st102/Training/projects/blue_sand/verif/sv/driver_apb.sv(29) @ 13510: uvm_test_top.my_env.agt_apb.drv0 [drv0] Waiting for data from sequencer
UVM_INFO /home/st102/Training/projects/blue_sand/verif/seq/apb_read_write_seq.sv(23) @ 13510: uvm_test_top.my_env.agt_apb.seqr0@@my_seq [SEQ] Generate new item
UVM_INFO /home/st102/Training/projects/blue_sand/verif/seq/apb_read_write_seq.sv(24) @ 13510: uvm_test_top.my_env.agt_apb.seqr0@@my_seq [SEQ] Seq send PKT to Driver: ADDR = 5, pwrite = 1, pwdata = 691463ef, prdata = 0, pslverr = 0, delay = 3
UVM_INFO /home/st102/Training/projects/blue_sand/verif/sv/driver_apb.sv(29) @ 13690: uvm_test_top.my_env.agt_apb.drv0 [drv0] Waiting for data from sequencer
UVM_INFO /home/st102/Training/projects/blue_sand/verif/seq/apb_read_write_seq.sv(23) @ 13690: uvm_test_top.my_env.agt_apb.seqr0@@my_seq [SEQ] Generate new item
UVM_INFO /home/st102/Training/projects/blue_sand/verif/seq/apb_read_write_seq.sv(24) @ 13690: uvm_test_top.my_env.agt_apb.seqr0@@my_seq [SEQ] Seq send PKT to Driver: ADDR = 5, pwrite = 0, pwdata = 5c9bd800, prdata = 0, pslverr = 0, delay = 1
UVM_ERROR /home/st102/Training/projects/blue_sand/verif/sv/scoreboard_counter.sv(77) @ 13810: uvm_test_top.my_env.scbd_counter [SCB] Mismatch [READ] @0x5: exp = 0x0 act = 0xd2
UVM_INFO /home/st102/Training/projects/blue_sand/verif/sv/driver_apb.sv(29) @ 13830: uvm_test_top.my_env.agt_apb.drv0 [drv0] Waiting for data from sequencer
UVM_INFO /home/st102/Training/projects/blue_sand/verif/seq/apb_read_write_seq.sv(23) @ 13830: uvm_test_top.my_env.agt_apb.seqr0@@my_seq [SEQ] Generate new item
UVM_INFO /home/st102/Training/projects/blue_sand/verif/seq/apb_read_write_seq.sv(24) @ 13830: uvm_test_top.my_env.agt_apb.seqr0@@my_seq [SEQ] Seq send PKT to Driver: ADDR = 6, pwrite = 0, pwdata = fa0906a8, prdata = 0, pslverr = 0, delay = 5
UVM_INFO /home/st102/Training/projects/blue_sand/verif/sv/driver_apb.sv(29) @ 14050: uvm_test_top.my_env.agt_apb.drv0 [drv0] Waiting for data from sequencer
UVM_INFO /home/st102/Training/projects/blue_sand/verif/seq/apb_read_write_seq.sv(23) @ 14050: uvm_test_top.my_env.agt_apb.seqr0@@my_seq [SEQ] Generate new item
UVM_INFO /home/st102/Training/projects/blue_sand/verif/seq/apb_read_write_seq.sv(24) @ 14050: uvm_test_top.my_env.agt_apb.seqr0@@my_seq [SEQ] Seq send PKT to Driver: ADDR = 2, pwrite = 1, pwdata = b67a286b, prdata = 0, pslverr = 0, delay = 0
UVM_INFO /home/st102/Training/projects/blue_sand/verif/sv/driver_apb.sv(29) @ 14170: uvm_test_top.my_env.agt_apb.drv0 [drv0] Waiting for data from sequencer
UVM_INFO /home/st102/Training/projects/blue_sand/verif/seq/apb_read_write_seq.sv(23) @ 14170: uvm_test_top.my_env.agt_apb.seqr0@@my_seq [SEQ] Generate new item
UVM_INFO /home/st102/Training/projects/blue_sand/verif/seq/apb_read_write_seq.sv(24) @ 14170: uvm_test_top.my_env.agt_apb.seqr0@@my_seq [SEQ] Seq send PKT to Driver: ADDR = 6, pwrite = 0, pwdata = a49be78, prdata = 0, pslverr = 0, delay = 5
UVM_INFO /home/st102/Training/projects/blue_sand/verif/sv/driver_apb.sv(29) @ 14390: uvm_test_top.my_env.agt_apb.drv0 [drv0] Waiting for data from sequencer
UVM_INFO /home/st102/Training/projects/blue_sand/verif/seq/apb_read_write_seq.sv(23) @ 14390: uvm_test_top.my_env.agt_apb.seqr0@@my_seq [SEQ] Generate new item
UVM_INFO /home/st102/Training/projects/blue_sand/verif/seq/apb_read_write_seq.sv(24) @ 14390: uvm_test_top.my_env.agt_apb.seqr0@@my_seq [SEQ] Seq send PKT to Driver: ADDR = 3, pwrite = 0, pwdata = a49146d3, prdata = 0, pslverr = 0, delay = 3
UVM_INFO /home/st102/Training/projects/blue_sand/verif/sv/driver_apb.sv(29) @ 14570: uvm_test_top.my_env.agt_apb.drv0 [drv0] Waiting for data from sequencer
UVM_INFO /home/st102/Training/projects/blue_sand/verif/seq/apb_read_write_seq.sv(23) @ 14570: uvm_test_top.my_env.agt_apb.seqr0@@my_seq [SEQ] Generate new item
UVM_INFO /home/st102/Training/projects/blue_sand/verif/seq/apb_read_write_seq.sv(24) @ 14570: uvm_test_top.my_env.agt_apb.seqr0@@my_seq [SEQ] Seq send PKT to Driver: ADDR = 6, pwrite = 1, pwdata = dcdb8d48, prdata = 0, pslverr = 0, delay = 1
UVM_INFO /home/st102/Training/projects/blue_sand/verif/sv/driver_apb.sv(29) @ 14710: uvm_test_top.my_env.agt_apb.drv0 [drv0] Waiting for data from sequencer
UVM_INFO /home/st102/Training/projects/blue_sand/verif/seq/apb_read_write_seq.sv(23) @ 14710: uvm_test_top.my_env.agt_apb.seqr0@@my_seq [SEQ] Generate new item
UVM_INFO /home/st102/Training/projects/blue_sand/verif/seq/apb_read_write_seq.sv(24) @ 14710: uvm_test_top.my_env.agt_apb.seqr0@@my_seq [SEQ] Seq send PKT to Driver: ADDR = 0, pwrite = 1, pwdata = e0a37a5, prdata = 0, pslverr = 0, delay = 4
UVM_INFO /home/st102/Training/projects/blue_sand/verif/sv/driver_apb.sv(29) @ 14910: uvm_test_top.my_env.agt_apb.drv0 [drv0] Waiting for data from sequencer
UVM_INFO /home/st102/Training/projects/blue_sand/verif/seq/apb_read_write_seq.sv(23) @ 14910: uvm_test_top.my_env.agt_apb.seqr0@@my_seq [SEQ] Generate new item
UVM_INFO /home/st102/Training/projects/blue_sand/verif/seq/apb_read_write_seq.sv(24) @ 14910: uvm_test_top.my_env.agt_apb.seqr0@@my_seq [SEQ] Seq send PKT to Driver: ADDR = 0, pwrite = 0, pwdata = 50ebba60, prdata = 0, pslverr = 0, delay = 2
UVM_INFO /home/st102/Training/projects/blue_sand/verif/sv/driver_apb.sv(29) @ 15070: uvm_test_top.my_env.agt_apb.drv0 [drv0] Waiting for data from sequencer
UVM_INFO /home/st102/Training/projects/blue_sand/verif/seq/apb_read_write_seq.sv(23) @ 15070: uvm_test_top.my_env.agt_apb.seqr0@@my_seq [SEQ] Generate new item
UVM_INFO /home/st102/Training/projects/blue_sand/verif/seq/apb_read_write_seq.sv(24) @ 15070: uvm_test_top.my_env.agt_apb.seqr0@@my_seq [SEQ] Seq send PKT to Driver: ADDR = 2, pwrite = 0, pwdata = d6aba4ab, prdata = 0, pslverr = 0, delay = 1
UVM_INFO /home/st102/Training/projects/blue_sand/verif/sv/driver_apb.sv(29) @ 15210: uvm_test_top.my_env.agt_apb.drv0 [drv0] Waiting for data from sequencer
UVM_INFO /home/st102/Training/projects/blue_sand/verif/seq/apb_read_write_seq.sv(23) @ 15210: uvm_test_top.my_env.agt_apb.seqr0@@my_seq [SEQ] Generate new item
UVM_INFO /home/st102/Training/projects/blue_sand/verif/seq/apb_read_write_seq.sv(24) @ 15210: uvm_test_top.my_env.agt_apb.seqr0@@my_seq [SEQ] Seq send PKT to Driver: ADDR = 3, pwrite = 1, pwdata = c3c561f4, prdata = 0, pslverr = 0, delay = 1
UVM_INFO /home/st102/Training/projects/blue_sand/verif/sv/driver_apb.sv(29) @ 15350: uvm_test_top.my_env.agt_apb.drv0 [drv0] Waiting for data from sequencer
UVM_INFO /home/st102/Training/projects/blue_sand/verif/seq/apb_read_write_seq.sv(23) @ 15350: uvm_test_top.my_env.agt_apb.seqr0@@my_seq [SEQ] Generate new item
UVM_INFO /home/st102/Training/projects/blue_sand/verif/seq/apb_read_write_seq.sv(24) @ 15350: uvm_test_top.my_env.agt_apb.seqr0@@my_seq [SEQ] Seq send PKT to Driver: ADDR = 4, pwrite = 0, pwdata = 5db9ccfa, prdata = 0, pslverr = 0, delay = 1
UVM_INFO /home/st102/Training/projects/blue_sand/verif/sv/driver_apb.sv(29) @ 15490: uvm_test_top.my_env.agt_apb.drv0 [drv0] Waiting for data from sequencer
UVM_INFO /home/st102/Training/projects/blue_sand/verif/seq/apb_read_write_seq.sv(23) @ 15490: uvm_test_top.my_env.agt_apb.seqr0@@my_seq [SEQ] Generate new item
UVM_INFO /home/st102/Training/projects/blue_sand/verif/seq/apb_read_write_seq.sv(24) @ 15490: uvm_test_top.my_env.agt_apb.seqr0@@my_seq [SEQ] Seq send PKT to Driver: ADDR = 4, pwrite = 1, pwdata = 3a844da3, prdata = 0, pslverr = 0, delay = 3
UVM_INFO /home/st102/Training/projects/blue_sand/verif/sv/driver_apb.sv(29) @ 15670: uvm_test_top.my_env.agt_apb.drv0 [drv0] Waiting for data from sequencer
UVM_INFO /home/st102/Training/projects/blue_sand/verif/seq/apb_read_write_seq.sv(23) @ 15670: uvm_test_top.my_env.agt_apb.seqr0@@my_seq [SEQ] Generate new item
UVM_INFO /home/st102/Training/projects/blue_sand/verif/seq/apb_read_write_seq.sv(24) @ 15670: uvm_test_top.my_env.agt_apb.seqr0@@my_seq [SEQ] Seq send PKT to Driver: ADDR = 3, pwrite = 1, pwdata = 19fb2c2d, prdata = 0, pslverr = 0, delay = 1
UVM_INFO /home/st102/Training/projects/blue_sand/verif/sv/driver_apb.sv(29) @ 15810: uvm_test_top.my_env.agt_apb.drv0 [drv0] Waiting for data from sequencer
UVM_INFO /home/st102/Training/projects/blue_sand/verif/seq/apb_read_write_seq.sv(23) @ 15810: uvm_test_top.my_env.agt_apb.seqr0@@my_seq [SEQ] Generate new item
UVM_INFO /home/st102/Training/projects/blue_sand/verif/seq/apb_read_write_seq.sv(24) @ 15810: uvm_test_top.my_env.agt_apb.seqr0@@my_seq [SEQ] Seq send PKT to Driver: ADDR = 3, pwrite = 1, pwdata = afdd3016, prdata = 0, pslverr = 0, delay = 3
UVM_INFO /home/st102/Training/projects/blue_sand/verif/sv/driver_apb.sv(29) @ 15990: uvm_test_top.my_env.agt_apb.drv0 [drv0] Waiting for data from sequencer
UVM_INFO /home/st102/Training/projects/blue_sand/verif/seq/apb_read_write_seq.sv(23) @ 15990: uvm_test_top.my_env.agt_apb.seqr0@@my_seq [SEQ] Generate new item
UVM_INFO /home/st102/Training/projects/blue_sand/verif/seq/apb_read_write_seq.sv(24) @ 15990: uvm_test_top.my_env.agt_apb.seqr0@@my_seq [SEQ] Seq send PKT to Driver: ADDR = 0, pwrite = 0, pwdata = eeebdcb9, prdata = 0, pslverr = 0, delay = 5
UVM_INFO /home/st102/Training/projects/blue_sand/verif/sv/driver_apb.sv(29) @ 16210: uvm_test_top.my_env.agt_apb.drv0 [drv0] Waiting for data from sequencer
UVM_INFO /home/st102/Training/projects/blue_sand/verif/seq/apb_read_write_seq.sv(23) @ 16210: uvm_test_top.my_env.agt_apb.seqr0@@my_seq [SEQ] Generate new item
UVM_INFO /home/st102/Training/projects/blue_sand/verif/seq/apb_read_write_seq.sv(24) @ 16210: uvm_test_top.my_env.agt_apb.seqr0@@my_seq [SEQ] Seq send PKT to Driver: ADDR = 3, pwrite = 0, pwdata = fa5c8417, prdata = 0, pslverr = 0, delay = 4
UVM_INFO /home/st102/Training/projects/blue_sand/verif/sv/driver_apb.sv(29) @ 16410: uvm_test_top.my_env.agt_apb.drv0 [drv0] Waiting for data from sequencer
UVM_INFO /home/st102/Training/projects/blue_sand/verif/seq/apb_read_write_seq.sv(23) @ 16410: uvm_test_top.my_env.agt_apb.seqr0@@my_seq [SEQ] Generate new item
UVM_INFO /home/st102/Training/projects/blue_sand/verif/seq/apb_read_write_seq.sv(24) @ 16410: uvm_test_top.my_env.agt_apb.seqr0@@my_seq [SEQ] Seq send PKT to Driver: ADDR = 3, pwrite = 1, pwdata = 15fcf72f, prdata = 0, pslverr = 0, delay = 4
UVM_INFO /home/st102/Training/projects/blue_sand/verif/sv/driver_apb.sv(29) @ 16610: uvm_test_top.my_env.agt_apb.drv0 [drv0] Waiting for data from sequencer
UVM_INFO /home/st102/Training/projects/blue_sand/verif/seq/apb_read_write_seq.sv(23) @ 16610: uvm_test_top.my_env.agt_apb.seqr0@@my_seq [SEQ] Generate new item
UVM_INFO /home/st102/Training/projects/blue_sand/verif/seq/apb_read_write_seq.sv(24) @ 16610: uvm_test_top.my_env.agt_apb.seqr0@@my_seq [SEQ] Seq send PKT to Driver: ADDR = 4, pwrite = 1, pwdata = 6718e4f8, prdata = 0, pslverr = 0, delay = 4
UVM_INFO /home/st102/Training/projects/blue_sand/verif/sv/driver_apb.sv(29) @ 16810: uvm_test_top.my_env.agt_apb.drv0 [drv0] Waiting for data from sequencer
UVM_INFO /home/st102/Training/projects/blue_sand/verif/seq/apb_read_write_seq.sv(23) @ 16810: uvm_test_top.my_env.agt_apb.seqr0@@my_seq [SEQ] Generate new item
UVM_INFO /home/st102/Training/projects/blue_sand/verif/seq/apb_read_write_seq.sv(24) @ 16810: uvm_test_top.my_env.agt_apb.seqr0@@my_seq [SEQ] Seq send PKT to Driver: ADDR = 2, pwrite = 1, pwdata = 9e07b987, prdata = 0, pslverr = 0, delay = 3
UVM_INFO /home/st102/Training/projects/blue_sand/verif/sv/driver_apb.sv(29) @ 16990: uvm_test_top.my_env.agt_apb.drv0 [drv0] Waiting for data from sequencer
UVM_INFO /home/st102/Training/projects/blue_sand/verif/seq/apb_read_write_seq.sv(23) @ 16990: uvm_test_top.my_env.agt_apb.seqr0@@my_seq [SEQ] Generate new item
UVM_INFO /home/st102/Training/projects/blue_sand/verif/seq/apb_read_write_seq.sv(24) @ 16990: uvm_test_top.my_env.agt_apb.seqr0@@my_seq [SEQ] Seq send PKT to Driver: ADDR = 3, pwrite = 0, pwdata = 479be325, prdata = 0, pslverr = 0, delay = 1
UVM_INFO /home/st102/Training/projects/blue_sand/verif/sv/driver_apb.sv(29) @ 17130: uvm_test_top.my_env.agt_apb.drv0 [drv0] Waiting for data from sequencer
UVM_INFO /home/st102/Training/projects/blue_sand/verif/seq/apb_read_write_seq.sv(23) @ 17130: uvm_test_top.my_env.agt_apb.seqr0@@my_seq [SEQ] Generate new item
UVM_INFO /home/st102/Training/projects/blue_sand/verif/seq/apb_read_write_seq.sv(24) @ 17130: uvm_test_top.my_env.agt_apb.seqr0@@my_seq [SEQ] Seq send PKT to Driver: ADDR = 5, pwrite = 0, pwdata = f7253ee2, prdata = 0, pslverr = 0, delay = 1
UVM_ERROR /home/st102/Training/projects/blue_sand/verif/sv/scoreboard_counter.sv(77) @ 17250: uvm_test_top.my_env.scbd_counter [SCB] Mismatch [READ] @0x5: exp = 0x0 act = 0xd2
UVM_INFO /home/st102/Training/projects/blue_sand/verif/sv/driver_apb.sv(29) @ 17270: uvm_test_top.my_env.agt_apb.drv0 [drv0] Waiting for data from sequencer
UVM_INFO /home/st102/Training/projects/blue_sand/verif/seq/apb_read_write_seq.sv(23) @ 17270: uvm_test_top.my_env.agt_apb.seqr0@@my_seq [SEQ] Generate new item
UVM_INFO /home/st102/Training/projects/blue_sand/verif/seq/apb_read_write_seq.sv(24) @ 17270: uvm_test_top.my_env.agt_apb.seqr0@@my_seq [SEQ] Seq send PKT to Driver: ADDR = 0, pwrite = 0, pwdata = 5e16d0a2, prdata = 0, pslverr = 0, delay = 5
UVM_INFO /home/st102/Training/projects/blue_sand/verif/sv/driver_apb.sv(29) @ 17490: uvm_test_top.my_env.agt_apb.drv0 [drv0] Waiting for data from sequencer
UVM_INFO /home/st102/Training/projects/blue_sand/verif/seq/apb_read_write_seq.sv(23) @ 17490: uvm_test_top.my_env.agt_apb.seqr0@@my_seq [SEQ] Generate new item
UVM_INFO /home/st102/Training/projects/blue_sand/verif/seq/apb_read_write_seq.sv(24) @ 17490: uvm_test_top.my_env.agt_apb.seqr0@@my_seq [SEQ] Seq send PKT to Driver: ADDR = 1, pwrite = 0, pwdata = a7274c8f, prdata = 0, pslverr = 0, delay = 5
UVM_INFO /home/st102/Training/projects/blue_sand/verif/sv/driver_apb.sv(29) @ 17710: uvm_test_top.my_env.agt_apb.drv0 [drv0] Waiting for data from sequencer
UVM_INFO /home/st102/Training/projects/blue_sand/verif/seq/apb_read_write_seq.sv(23) @ 17710: uvm_test_top.my_env.agt_apb.seqr0@@my_seq [SEQ] Generate new item
UVM_INFO /home/st102/Training/projects/blue_sand/verif/seq/apb_read_write_seq.sv(24) @ 17710: uvm_test_top.my_env.agt_apb.seqr0@@my_seq [SEQ] Seq send PKT to Driver: ADDR = 1, pwrite = 1, pwdata = f0107ead, prdata = 0, pslverr = 0, delay = 2
UVM_INFO /home/st102/Training/projects/blue_sand/verif/sv/driver_apb.sv(29) @ 17870: uvm_test_top.my_env.agt_apb.drv0 [drv0] Waiting for data from sequencer
UVM_INFO /home/st102/Training/projects/blue_sand/verif/seq/apb_read_write_seq.sv(23) @ 17870: uvm_test_top.my_env.agt_apb.seqr0@@my_seq [SEQ] Generate new item
UVM_INFO /home/st102/Training/projects/blue_sand/verif/seq/apb_read_write_seq.sv(24) @ 17870: uvm_test_top.my_env.agt_apb.seqr0@@my_seq [SEQ] Seq send PKT to Driver: ADDR = 4, pwrite = 0, pwdata = a779940a, prdata = 0, pslverr = 0, delay = 1
UVM_INFO /home/st102/Training/projects/blue_sand/verif/sv/driver_apb.sv(29) @ 18010: uvm_test_top.my_env.agt_apb.drv0 [drv0] Waiting for data from sequencer
UVM_INFO /home/st102/Training/projects/blue_sand/verif/seq/apb_read_write_seq.sv(23) @ 18010: uvm_test_top.my_env.agt_apb.seqr0@@my_seq [SEQ] Generate new item
UVM_INFO /home/st102/Training/projects/blue_sand/verif/seq/apb_read_write_seq.sv(24) @ 18010: uvm_test_top.my_env.agt_apb.seqr0@@my_seq [SEQ] Seq send PKT to Driver: ADDR = 4, pwrite = 1, pwdata = 691c35a2, prdata = 0, pslverr = 0, delay = 2
UVM_INFO /home/st102/Training/projects/blue_sand/verif/sv/driver_apb.sv(29) @ 18170: uvm_test_top.my_env.agt_apb.drv0 [drv0] Waiting for data from sequencer
UVM_INFO /home/st102/Training/projects/blue_sand/verif/seq/apb_read_write_seq.sv(23) @ 18170: uvm_test_top.my_env.agt_apb.seqr0@@my_seq [SEQ] Generate new item
UVM_INFO /home/st102/Training/projects/blue_sand/verif/seq/apb_read_write_seq.sv(24) @ 18170: uvm_test_top.my_env.agt_apb.seqr0@@my_seq [SEQ] Seq send PKT to Driver: ADDR = 4, pwrite = 1, pwdata = f77afd27, prdata = 0, pslverr = 0, delay = 0
UVM_INFO /home/st102/Training/projects/blue_sand/verif/sv/driver_apb.sv(29) @ 18290: uvm_test_top.my_env.agt_apb.drv0 [drv0] Waiting for data from sequencer
UVM_INFO /home/st102/Training/projects/blue_sand/verif/seq/apb_read_write_seq.sv(23) @ 18290: uvm_test_top.my_env.agt_apb.seqr0@@my_seq [SEQ] Generate new item
UVM_INFO /home/st102/Training/projects/blue_sand/verif/seq/apb_read_write_seq.sv(24) @ 18290: uvm_test_top.my_env.agt_apb.seqr0@@my_seq [SEQ] Seq send PKT to Driver: ADDR = 1, pwrite = 1, pwdata = bd56467d, prdata = 0, pslverr = 0, delay = 0
UVM_INFO /home/st102/Training/projects/blue_sand/verif/sv/driver_apb.sv(29) @ 18410: uvm_test_top.my_env.agt_apb.drv0 [drv0] Waiting for data from sequencer
UVM_INFO /home/st102/Training/projects/blue_sand/verif/seq/apb_read_write_seq.sv(23) @ 18410: uvm_test_top.my_env.agt_apb.seqr0@@my_seq [SEQ] Generate new item
UVM_INFO /home/st102/Training/projects/blue_sand/verif/seq/apb_read_write_seq.sv(24) @ 18410: uvm_test_top.my_env.agt_apb.seqr0@@my_seq [SEQ] Seq send PKT to Driver: ADDR = 1, pwrite = 0, pwdata = f95e2fd5, prdata = 0, pslverr = 0, delay = 0
UVM_INFO /home/st102/Training/projects/blue_sand/verif/sv/driver_apb.sv(29) @ 18530: uvm_test_top.my_env.agt_apb.drv0 [drv0] Waiting for data from sequencer
UVM_INFO /home/st102/Training/projects/blue_sand/verif/seq/apb_read_write_seq.sv(23) @ 18530: uvm_test_top.my_env.agt_apb.seqr0@@my_seq [SEQ] Generate new item
UVM_INFO /home/st102/Training/projects/blue_sand/verif/seq/apb_read_write_seq.sv(24) @ 18530: uvm_test_top.my_env.agt_apb.seqr0@@my_seq [SEQ] Seq send PKT to Driver: ADDR = 1, pwrite = 1, pwdata = 92e3d7e3, prdata = 0, pslverr = 0, delay = 2
UVM_INFO /home/st102/Training/projects/blue_sand/verif/sv/driver_apb.sv(29) @ 18690: uvm_test_top.my_env.agt_apb.drv0 [drv0] Waiting for data from sequencer
UVM_INFO /home/st102/Training/projects/blue_sand/verif/seq/apb_read_write_seq.sv(23) @ 18690: uvm_test_top.my_env.agt_apb.seqr0@@my_seq [SEQ] Generate new item
UVM_INFO /home/st102/Training/projects/blue_sand/verif/seq/apb_read_write_seq.sv(24) @ 18690: uvm_test_top.my_env.agt_apb.seqr0@@my_seq [SEQ] Seq send PKT to Driver: ADDR = 4, pwrite = 0, pwdata = 17f2d51c, prdata = 0, pslverr = 0, delay = 2
UVM_INFO /home/st102/Training/projects/blue_sand/verif/sv/driver_apb.sv(29) @ 18850: uvm_test_top.my_env.agt_apb.drv0 [drv0] Waiting for data from sequencer
UVM_INFO /home/st102/Training/projects/blue_sand/verif/seq/apb_read_write_seq.sv(23) @ 18850: uvm_test_top.my_env.agt_apb.seqr0@@my_seq [SEQ] Generate new item
UVM_INFO /home/st102/Training/projects/blue_sand/verif/seq/apb_read_write_seq.sv(24) @ 18850: uvm_test_top.my_env.agt_apb.seqr0@@my_seq [SEQ] Seq send PKT to Driver: ADDR = 4, pwrite = 1, pwdata = 9718c809, prdata = 0, pslverr = 0, delay = 1
UVM_INFO /home/st102/Training/projects/blue_sand/verif/sv/driver_apb.sv(29) @ 18990: uvm_test_top.my_env.agt_apb.drv0 [drv0] Waiting for data from sequencer
UVM_INFO /home/st102/Training/projects/blue_sand/verif/seq/apb_read_write_seq.sv(23) @ 18990: uvm_test_top.my_env.agt_apb.seqr0@@my_seq [SEQ] Generate new item
UVM_INFO /home/st102/Training/projects/blue_sand/verif/seq/apb_read_write_seq.sv(24) @ 18990: uvm_test_top.my_env.agt_apb.seqr0@@my_seq [SEQ] Seq send PKT to Driver: ADDR = 4, pwrite = 1, pwdata = e22299ce, prdata = 0, pslverr = 0, delay = 0
UVM_INFO /home/st102/Training/projects/blue_sand/verif/sv/driver_apb.sv(29) @ 19110: uvm_test_top.my_env.agt_apb.drv0 [drv0] Waiting for data from sequencer
UVM_INFO /home/st102/Training/projects/blue_sand/verif/seq/apb_read_write_seq.sv(23) @ 19110: uvm_test_top.my_env.agt_apb.seqr0@@my_seq [SEQ] Generate new item
UVM_INFO /home/st102/Training/projects/blue_sand/verif/seq/apb_read_write_seq.sv(24) @ 19110: uvm_test_top.my_env.agt_apb.seqr0@@my_seq [SEQ] Seq send PKT to Driver: ADDR = 6, pwrite = 0, pwdata = ccf8ab0, prdata = 0, pslverr = 0, delay = 4
UVM_INFO /home/st102/Training/projects/blue_sand/verif/sv/driver_apb.sv(29) @ 19310: uvm_test_top.my_env.agt_apb.drv0 [drv0] Waiting for data from sequencer
UVM_INFO /home/st102/Training/projects/blue_sand/verif/seq/apb_read_write_seq.sv(23) @ 19310: uvm_test_top.my_env.agt_apb.seqr0@@my_seq [SEQ] Generate new item
UVM_INFO /home/st102/Training/projects/blue_sand/verif/seq/apb_read_write_seq.sv(24) @ 19310: uvm_test_top.my_env.agt_apb.seqr0@@my_seq [SEQ] Seq send PKT to Driver: ADDR = 5, pwrite = 1, pwdata = c4d1ba5c, prdata = 0, pslverr = 0, delay = 0
UVM_INFO /home/st102/Training/projects/blue_sand/verif/sv/driver_apb.sv(29) @ 19430: uvm_test_top.my_env.agt_apb.drv0 [drv0] Waiting for data from sequencer
UVM_INFO /home/st102/Training/projects/blue_sand/verif/seq/apb_read_write_seq.sv(23) @ 19430: uvm_test_top.my_env.agt_apb.seqr0@@my_seq [SEQ] Generate new item
UVM_INFO /home/st102/Training/projects/blue_sand/verif/seq/apb_read_write_seq.sv(24) @ 19430: uvm_test_top.my_env.agt_apb.seqr0@@my_seq [SEQ] Seq send PKT to Driver: ADDR = 3, pwrite = 0, pwdata = 74aad2e5, prdata = 0, pslverr = 0, delay = 2
UVM_INFO /home/st102/Training/projects/blue_sand/verif/sv/driver_apb.sv(29) @ 19590: uvm_test_top.my_env.agt_apb.drv0 [drv0] Waiting for data from sequencer
UVM_INFO /home/st102/Training/projects/blue_sand/verif/seq/apb_read_write_seq.sv(23) @ 19590: uvm_test_top.my_env.agt_apb.seqr0@@my_seq [SEQ] Generate new item
UVM_INFO /home/st102/Training/projects/blue_sand/verif/seq/apb_read_write_seq.sv(24) @ 19590: uvm_test_top.my_env.agt_apb.seqr0@@my_seq [SEQ] Seq send PKT to Driver: ADDR = 6, pwrite = 0, pwdata = d29d57ce, prdata = 0, pslverr = 0, delay = 2
UVM_INFO /home/st102/Training/projects/blue_sand/verif/sv/driver_apb.sv(29) @ 19750: uvm_test_top.my_env.agt_apb.drv0 [drv0] Waiting for data from sequencer
UVM_INFO /home/st102/Training/projects/blue_sand/verif/seq/apb_read_write_seq.sv(23) @ 19750: uvm_test_top.my_env.agt_apb.seqr0@@my_seq [SEQ] Generate new item
UVM_INFO /home/st102/Training/projects/blue_sand/verif/seq/apb_read_write_seq.sv(24) @ 19750: uvm_test_top.my_env.agt_apb.seqr0@@my_seq [SEQ] Seq send PKT to Driver: ADDR = 5, pwrite = 1, pwdata = bbbc6941, prdata = 0, pslverr = 0, delay = 4
UVM_INFO /home/st102/Training/projects/blue_sand/verif/sv/driver_apb.sv(29) @ 19950: uvm_test_top.my_env.agt_apb.drv0 [drv0] Waiting for data from sequencer
UVM_INFO /home/st102/Training/projects/blue_sand/verif/seq/apb_read_write_seq.sv(23) @ 19950: uvm_test_top.my_env.agt_apb.seqr0@@my_seq [SEQ] Generate new item
UVM_INFO /home/st102/Training/projects/blue_sand/verif/seq/apb_read_write_seq.sv(24) @ 19950: uvm_test_top.my_env.agt_apb.seqr0@@my_seq [SEQ] Seq send PKT to Driver: ADDR = 1, pwrite = 1, pwdata = ddbcb60, prdata = 0, pslverr = 0, delay = 1
UVM_INFO /home/st102/Training/projects/blue_sand/verif/sv/driver_apb.sv(29) @ 20090: uvm_test_top.my_env.agt_apb.drv0 [drv0] Waiting for data from sequencer
UVM_INFO /home/st102/Training/projects/blue_sand/verif/seq/apb_read_write_seq.sv(23) @ 20090: uvm_test_top.my_env.agt_apb.seqr0@@my_seq [SEQ] Generate new item
UVM_INFO /home/st102/Training/projects/blue_sand/verif/seq/apb_read_write_seq.sv(24) @ 20090: uvm_test_top.my_env.agt_apb.seqr0@@my_seq [SEQ] Seq send PKT to Driver: ADDR = 0, pwrite = 1, pwdata = ee9654c7, prdata = 0, pslverr = 0, delay = 5
UVM_INFO /home/st102/Training/projects/blue_sand/verif/sv/driver_apb.sv(29) @ 20310: uvm_test_top.my_env.agt_apb.drv0 [drv0] Waiting for data from sequencer
UVM_INFO /home/st102/Training/projects/blue_sand/verif/seq/apb_read_write_seq.sv(23) @ 20310: uvm_test_top.my_env.agt_apb.seqr0@@my_seq [SEQ] Generate new item
UVM_INFO /home/st102/Training/projects/blue_sand/verif/seq/apb_read_write_seq.sv(24) @ 20310: uvm_test_top.my_env.agt_apb.seqr0@@my_seq [SEQ] Seq send PKT to Driver: ADDR = 1, pwrite = 0, pwdata = 60375e87, prdata = 0, pslverr = 0, delay = 3
UVM_INFO /home/st102/Training/projects/blue_sand/verif/sv/driver_apb.sv(29) @ 20490: uvm_test_top.my_env.agt_apb.drv0 [drv0] Waiting for data from sequencer
UVM_INFO /home/st102/Training/projects/blue_sand/verif/seq/apb_read_write_seq.sv(23) @ 20490: uvm_test_top.my_env.agt_apb.seqr0@@my_seq [SEQ] Generate new item
UVM_INFO /home/st102/Training/projects/blue_sand/verif/seq/apb_read_write_seq.sv(24) @ 20490: uvm_test_top.my_env.agt_apb.seqr0@@my_seq [SEQ] Seq send PKT to Driver: ADDR = 0, pwrite = 0, pwdata = e14f0b4f, prdata = 0, pslverr = 0, delay = 5
UVM_INFO /home/st102/Training/projects/blue_sand/verif/sv/driver_apb.sv(29) @ 20710: uvm_test_top.my_env.agt_apb.drv0 [drv0] Waiting for data from sequencer
UVM_INFO /home/st102/Training/projects/blue_sand/verif/seq/apb_read_write_seq.sv(23) @ 20710: uvm_test_top.my_env.agt_apb.seqr0@@my_seq [SEQ] Generate new item
UVM_INFO /home/st102/Training/projects/blue_sand/verif/seq/apb_read_write_seq.sv(24) @ 20710: uvm_test_top.my_env.agt_apb.seqr0@@my_seq [SEQ] Seq send PKT to Driver: ADDR = 4, pwrite = 1, pwdata = a388e0dd, prdata = 0, pslverr = 0, delay = 3
UVM_INFO /home/st102/Training/projects/blue_sand/verif/sv/driver_apb.sv(29) @ 20890: uvm_test_top.my_env.agt_apb.drv0 [drv0] Waiting for data from sequencer
UVM_INFO /home/st102/Training/projects/blue_sand/verif/seq/apb_read_write_seq.sv(23) @ 20890: uvm_test_top.my_env.agt_apb.seqr0@@my_seq [SEQ] Generate new item
UVM_INFO /home/st102/Training/projects/blue_sand/verif/seq/apb_read_write_seq.sv(24) @ 20890: uvm_test_top.my_env.agt_apb.seqr0@@my_seq [SEQ] Seq send PKT to Driver: ADDR = 3, pwrite = 0, pwdata = 8fa76908, prdata = 0, pslverr = 0, delay = 1
UVM_INFO /home/st102/Training/projects/blue_sand/verif/sv/driver_apb.sv(29) @ 21030: uvm_test_top.my_env.agt_apb.drv0 [drv0] Waiting for data from sequencer
UVM_INFO /home/st102/Training/projects/blue_sand/verif/seq/apb_read_write_seq.sv(23) @ 21030: uvm_test_top.my_env.agt_apb.seqr0@@my_seq [SEQ] Generate new item
UVM_INFO /home/st102/Training/projects/blue_sand/verif/seq/apb_read_write_seq.sv(24) @ 21030: uvm_test_top.my_env.agt_apb.seqr0@@my_seq [SEQ] Seq send PKT to Driver: ADDR = 5, pwrite = 0, pwdata = 833a21be, prdata = 0, pslverr = 0, delay = 4
UVM_ERROR /home/st102/Training/projects/blue_sand/verif/sv/scoreboard_counter.sv(77) @ 21150: uvm_test_top.my_env.scbd_counter [SCB] Mismatch [READ] @0x5: exp = 0x0 act = 0x61
UVM_INFO /home/st102/Training/projects/blue_sand/verif/sv/driver_apb.sv(29) @ 21230: uvm_test_top.my_env.agt_apb.drv0 [drv0] Waiting for data from sequencer
UVM_INFO /home/st102/Training/projects/blue_sand/verif/seq/apb_read_write_seq.sv(23) @ 21230: uvm_test_top.my_env.agt_apb.seqr0@@my_seq [SEQ] Generate new item
UVM_INFO /home/st102/Training/projects/blue_sand/verif/seq/apb_read_write_seq.sv(24) @ 21230: uvm_test_top.my_env.agt_apb.seqr0@@my_seq [SEQ] Seq send PKT to Driver: ADDR = 6, pwrite = 1, pwdata = 4320ff5f, prdata = 0, pslverr = 0, delay = 3
UVM_INFO /home/st102/Training/projects/blue_sand/verif/sv/driver_apb.sv(29) @ 21410: uvm_test_top.my_env.agt_apb.drv0 [drv0] Waiting for data from sequencer
UVM_INFO /home/st102/Training/projects/blue_sand/verif/seq/apb_read_write_seq.sv(23) @ 21410: uvm_test_top.my_env.agt_apb.seqr0@@my_seq [SEQ] Generate new item
UVM_INFO /home/st102/Training/projects/blue_sand/verif/seq/apb_read_write_seq.sv(24) @ 21410: uvm_test_top.my_env.agt_apb.seqr0@@my_seq [SEQ] Seq send PKT to Driver: ADDR = 0, pwrite = 0, pwdata = d95c9870, prdata = 0, pslverr = 0, delay = 3
UVM_INFO /home/st102/Training/projects/blue_sand/verif/sv/driver_apb.sv(29) @ 21590: uvm_test_top.my_env.agt_apb.drv0 [drv0] Waiting for data from sequencer
UVM_INFO /home/st102/Training/projects/blue_sand/verif/seq/apb_read_write_seq.sv(23) @ 21590: uvm_test_top.my_env.agt_apb.seqr0@@my_seq [SEQ] Generate new item
UVM_INFO /home/st102/Training/projects/blue_sand/verif/seq/apb_read_write_seq.sv(24) @ 21590: uvm_test_top.my_env.agt_apb.seqr0@@my_seq [SEQ] Seq send PKT to Driver: ADDR = 1, pwrite = 0, pwdata = 5d65f309, prdata = 0, pslverr = 0, delay = 3
UVM_INFO /home/st102/Training/projects/blue_sand/verif/sv/driver_apb.sv(29) @ 21770: uvm_test_top.my_env.agt_apb.drv0 [drv0] Waiting for data from sequencer
UVM_INFO /home/st102/Training/projects/blue_sand/verif/seq/apb_read_write_seq.sv(23) @ 21770: uvm_test_top.my_env.agt_apb.seqr0@@my_seq [SEQ] Generate new item
UVM_INFO /home/st102/Training/projects/blue_sand/verif/seq/apb_read_write_seq.sv(24) @ 21770: uvm_test_top.my_env.agt_apb.seqr0@@my_seq [SEQ] Seq send PKT to Driver: ADDR = 6, pwrite = 0, pwdata = 9c37e2b8, prdata = 0, pslverr = 0, delay = 5
UVM_INFO /home/st102/Training/projects/blue_sand/verif/sv/driver_apb.sv(29) @ 21990: uvm_test_top.my_env.agt_apb.drv0 [drv0] Waiting for data from sequencer
UVM_INFO /home/st102/Training/projects/blue_sand/verif/seq/apb_read_write_seq.sv(23) @ 21990: uvm_test_top.my_env.agt_apb.seqr0@@my_seq [SEQ] Generate new item
UVM_INFO /home/st102/Training/projects/blue_sand/verif/seq/apb_read_write_seq.sv(24) @ 21990: uvm_test_top.my_env.agt_apb.seqr0@@my_seq [SEQ] Seq send PKT to Driver: ADDR = 6, pwrite = 1, pwdata = 56979046, prdata = 0, pslverr = 0, delay = 0
UVM_INFO /home/st102/Training/projects/blue_sand/verif/sv/driver_apb.sv(29) @ 22110: uvm_test_top.my_env.agt_apb.drv0 [drv0] Waiting for data from sequencer
UVM_INFO /home/st102/Training/projects/blue_sand/verif/seq/apb_read_write_seq.sv(23) @ 22110: uvm_test_top.my_env.agt_apb.seqr0@@my_seq [SEQ] Generate new item
UVM_INFO /home/st102/Training/projects/blue_sand/verif/seq/apb_read_write_seq.sv(24) @ 22110: uvm_test_top.my_env.agt_apb.seqr0@@my_seq [SEQ] Seq send PKT to Driver: ADDR = 3, pwrite = 0, pwdata = a3b3c166, prdata = 0, pslverr = 0, delay = 2
UVM_INFO /home/st102/Training/projects/blue_sand/verif/sv/driver_apb.sv(29) @ 22270: uvm_test_top.my_env.agt_apb.drv0 [drv0] Waiting for data from sequencer
UVM_INFO /home/st102/Training/projects/blue_sand/verif/seq/apb_read_write_seq.sv(23) @ 22270: uvm_test_top.my_env.agt_apb.seqr0@@my_seq [SEQ] Generate new item
UVM_INFO /home/st102/Training/projects/blue_sand/verif/seq/apb_read_write_seq.sv(24) @ 22270: uvm_test_top.my_env.agt_apb.seqr0@@my_seq [SEQ] Seq send PKT to Driver: ADDR = 1, pwrite = 0, pwdata = 172551f0, prdata = 0, pslverr = 0, delay = 2
UVM_INFO /home/st102/Training/projects/blue_sand/verif/sv/driver_apb.sv(29) @ 22430: uvm_test_top.my_env.agt_apb.drv0 [drv0] Waiting for data from sequencer
UVM_INFO /home/st102/Training/projects/blue_sand/verif/seq/apb_read_write_seq.sv(23) @ 22430: uvm_test_top.my_env.agt_apb.seqr0@@my_seq [SEQ] Generate new item
UVM_INFO /home/st102/Training/projects/blue_sand/verif/seq/apb_read_write_seq.sv(24) @ 22430: uvm_test_top.my_env.agt_apb.seqr0@@my_seq [SEQ] Seq send PKT to Driver: ADDR = 1, pwrite = 1, pwdata = cbc75b31, prdata = 0, pslverr = 0, delay = 1
UVM_INFO /home/st102/Training/projects/blue_sand/verif/sv/driver_apb.sv(29) @ 22570: uvm_test_top.my_env.agt_apb.drv0 [drv0] Waiting for data from sequencer
UVM_INFO /home/st102/Training/projects/blue_sand/verif/seq/apb_read_write_seq.sv(23) @ 22570: uvm_test_top.my_env.agt_apb.seqr0@@my_seq [SEQ] Generate new item
UVM_INFO /home/st102/Training/projects/blue_sand/verif/seq/apb_read_write_seq.sv(24) @ 22570: uvm_test_top.my_env.agt_apb.seqr0@@my_seq [SEQ] Seq send PKT to Driver: ADDR = 2, pwrite = 1, pwdata = bbe2f091, prdata = 0, pslverr = 0, delay = 1
UVM_INFO /home/st102/Training/projects/blue_sand/verif/sv/driver_apb.sv(29) @ 22710: uvm_test_top.my_env.agt_apb.drv0 [drv0] Waiting for data from sequencer
UVM_INFO /home/st102/Training/projects/blue_sand/verif/seq/apb_read_write_seq.sv(23) @ 22710: uvm_test_top.my_env.agt_apb.seqr0@@my_seq [SEQ] Generate new item
UVM_INFO /home/st102/Training/projects/blue_sand/verif/seq/apb_read_write_seq.sv(24) @ 22710: uvm_test_top.my_env.agt_apb.seqr0@@my_seq [SEQ] Seq send PKT to Driver: ADDR = 2, pwrite = 0, pwdata = 46b38ea5, prdata = 0, pslverr = 0, delay = 2
UVM_INFO /home/st102/Training/projects/blue_sand/verif/sv/driver_apb.sv(29) @ 22870: uvm_test_top.my_env.agt_apb.drv0 [drv0] Waiting for data from sequencer
UVM_INFO /home/st102/Training/projects/blue_sand/verif/seq/apb_read_write_seq.sv(23) @ 22870: uvm_test_top.my_env.agt_apb.seqr0@@my_seq [SEQ] Generate new item
UVM_INFO /home/st102/Training/projects/blue_sand/verif/seq/apb_read_write_seq.sv(24) @ 22870: uvm_test_top.my_env.agt_apb.seqr0@@my_seq [SEQ] Seq send PKT to Driver: ADDR = 6, pwrite = 1, pwdata = 3958483, prdata = 0, pslverr = 0, delay = 0
UVM_INFO /home/st102/Training/projects/blue_sand/verif/sv/driver_apb.sv(29) @ 22990: uvm_test_top.my_env.agt_apb.drv0 [drv0] Waiting for data from sequencer
UVM_INFO /home/st102/Training/projects/blue_sand/verif/seq/apb_read_write_seq.sv(23) @ 22990: uvm_test_top.my_env.agt_apb.seqr0@@my_seq [SEQ] Generate new item
UVM_INFO /home/st102/Training/projects/blue_sand/verif/seq/apb_read_write_seq.sv(24) @ 22990: uvm_test_top.my_env.agt_apb.seqr0@@my_seq [SEQ] Seq send PKT to Driver: ADDR = 1, pwrite = 1, pwdata = 145da750, prdata = 0, pslverr = 0, delay = 4
UVM_INFO /home/st102/Training/projects/blue_sand/verif/sv/driver_apb.sv(29) @ 23190: uvm_test_top.my_env.agt_apb.drv0 [drv0] Waiting for data from sequencer
UVM_INFO /home/st102/Training/projects/blue_sand/verif/seq/apb_read_write_seq.sv(23) @ 23190: uvm_test_top.my_env.agt_apb.seqr0@@my_seq [SEQ] Generate new item
UVM_INFO /home/st102/Training/projects/blue_sand/verif/seq/apb_read_write_seq.sv(24) @ 23190: uvm_test_top.my_env.agt_apb.seqr0@@my_seq [SEQ] Seq send PKT to Driver: ADDR = 3, pwrite = 1, pwdata = ff9a1725, prdata = 0, pslverr = 0, delay = 3
UVM_INFO /home/st102/Training/projects/blue_sand/verif/sv/driver_apb.sv(29) @ 23370: uvm_test_top.my_env.agt_apb.drv0 [drv0] Waiting for data from sequencer
UVM_INFO /home/st102/Training/projects/blue_sand/verif/seq/apb_read_write_seq.sv(23) @ 23370: uvm_test_top.my_env.agt_apb.seqr0@@my_seq [SEQ] Generate new item
UVM_INFO /home/st102/Training/projects/blue_sand/verif/seq/apb_read_write_seq.sv(24) @ 23370: uvm_test_top.my_env.agt_apb.seqr0@@my_seq [SEQ] Seq send PKT to Driver: ADDR = 0, pwrite = 0, pwdata = 2c23c1b6, prdata = 0, pslverr = 0, delay = 2
UVM_INFO /home/st102/Training/projects/blue_sand/verif/sv/driver_apb.sv(29) @ 23530: uvm_test_top.my_env.agt_apb.drv0 [drv0] Waiting for data from sequencer
UVM_INFO /home/st102/Training/projects/blue_sand/verif/seq/apb_read_write_seq.sv(23) @ 23530: uvm_test_top.my_env.agt_apb.seqr0@@my_seq [SEQ] Generate new item
UVM_INFO /home/st102/Training/projects/blue_sand/verif/seq/apb_read_write_seq.sv(24) @ 23530: uvm_test_top.my_env.agt_apb.seqr0@@my_seq [SEQ] Seq send PKT to Driver: ADDR = 1, pwrite = 0, pwdata = b6ae22c3, prdata = 0, pslverr = 0, delay = 3
UVM_INFO /home/st102/Training/projects/blue_sand/verif/sv/driver_apb.sv(29) @ 23710: uvm_test_top.my_env.agt_apb.drv0 [drv0] Waiting for data from sequencer
UVM_INFO /home/st102/Training/projects/blue_sand/verif/seq/apb_read_write_seq.sv(23) @ 23710: uvm_test_top.my_env.agt_apb.seqr0@@my_seq [SEQ] Generate new item
UVM_INFO /home/st102/Training/projects/blue_sand/verif/seq/apb_read_write_seq.sv(24) @ 23710: uvm_test_top.my_env.agt_apb.seqr0@@my_seq [SEQ] Seq send PKT to Driver: ADDR = 0, pwrite = 1, pwdata = b713dbdb, prdata = 0, pslverr = 0, delay = 4
UVM_INFO /home/st102/Training/projects/blue_sand/verif/sv/driver_apb.sv(29) @ 23910: uvm_test_top.my_env.agt_apb.drv0 [drv0] Waiting for data from sequencer
UVM_INFO /home/st102/Training/projects/blue_sand/verif/seq/apb_read_write_seq.sv(23) @ 23910: uvm_test_top.my_env.agt_apb.seqr0@@my_seq [SEQ] Generate new item
UVM_INFO /home/st102/Training/projects/blue_sand/verif/seq/apb_read_write_seq.sv(24) @ 23910: uvm_test_top.my_env.agt_apb.seqr0@@my_seq [SEQ] Seq send PKT to Driver: ADDR = 4, pwrite = 1, pwdata = 917d8863, prdata = 0, pslverr = 0, delay = 3
UVM_INFO /home/st102/Training/projects/blue_sand/verif/sv/driver_apb.sv(29) @ 24090: uvm_test_top.my_env.agt_apb.drv0 [drv0] Waiting for data from sequencer
UVM_INFO /home/st102/Training/projects/blue_sand/verif/seq/apb_read_write_seq.sv(23) @ 24090: uvm_test_top.my_env.agt_apb.seqr0@@my_seq [SEQ] Generate new item
UVM_INFO /home/st102/Training/projects/blue_sand/verif/seq/apb_read_write_seq.sv(24) @ 24090: uvm_test_top.my_env.agt_apb.seqr0@@my_seq [SEQ] Seq send PKT to Driver: ADDR = 3, pwrite = 0, pwdata = 466310ba, prdata = 0, pslverr = 0, delay = 1
UVM_INFO /home/st102/Training/projects/blue_sand/verif/sv/driver_apb.sv(29) @ 24230: uvm_test_top.my_env.agt_apb.drv0 [drv0] Waiting for data from sequencer
UVM_INFO /home/st102/Training/projects/blue_sand/verif/seq/apb_read_write_seq.sv(23) @ 24230: uvm_test_top.my_env.agt_apb.seqr0@@my_seq [SEQ] Generate new item
UVM_INFO /home/st102/Training/projects/blue_sand/verif/seq/apb_read_write_seq.sv(24) @ 24230: uvm_test_top.my_env.agt_apb.seqr0@@my_seq [SEQ] Seq send PKT to Driver: ADDR = 1, pwrite = 0, pwdata = 2e4a7766, prdata = 0, pslverr = 0, delay = 0
UVM_INFO /home/st102/Training/projects/blue_sand/verif/sv/driver_apb.sv(29) @ 24350: uvm_test_top.my_env.agt_apb.drv0 [drv0] Waiting for data from sequencer
UVM_INFO /home/st102/Training/projects/blue_sand/verif/seq/apb_read_write_seq.sv(23) @ 24350: uvm_test_top.my_env.agt_apb.seqr0@@my_seq [SEQ] Generate new item
UVM_INFO /home/st102/Training/projects/blue_sand/verif/seq/apb_read_write_seq.sv(24) @ 24350: uvm_test_top.my_env.agt_apb.seqr0@@my_seq [SEQ] Seq send PKT to Driver: ADDR = 0, pwrite = 1, pwdata = 22a40379, prdata = 0, pslverr = 0, delay = 4
UVM_INFO /home/st102/Training/projects/blue_sand/verif/sv/driver_apb.sv(29) @ 24550: uvm_test_top.my_env.agt_apb.drv0 [drv0] Waiting for data from sequencer
UVM_INFO /home/st102/Training/projects/blue_sand/verif/seq/apb_read_write_seq.sv(23) @ 24550: uvm_test_top.my_env.agt_apb.seqr0@@my_seq [SEQ] Generate new item
UVM_INFO /home/st102/Training/projects/blue_sand/verif/seq/apb_read_write_seq.sv(24) @ 24550: uvm_test_top.my_env.agt_apb.seqr0@@my_seq [SEQ] Seq send PKT to Driver: ADDR = 1, pwrite = 0, pwdata = c8241fbd, prdata = 0, pslverr = 0, delay = 0
UVM_INFO /home/st102/Training/projects/blue_sand/verif/sv/driver_apb.sv(29) @ 24670: uvm_test_top.my_env.agt_apb.drv0 [drv0] Waiting for data from sequencer
UVM_INFO /home/st102/Training/projects/blue_sand/verif/seq/apb_read_write_seq.sv(23) @ 24670: uvm_test_top.my_env.agt_apb.seqr0@@my_seq [SEQ] Generate new item
UVM_INFO /home/st102/Training/projects/blue_sand/verif/seq/apb_read_write_seq.sv(24) @ 24670: uvm_test_top.my_env.agt_apb.seqr0@@my_seq [SEQ] Seq send PKT to Driver: ADDR = 0, pwrite = 1, pwdata = 79bae1ef, prdata = 0, pslverr = 0, delay = 0
UVM_INFO /home/st102/Training/projects/blue_sand/verif/sv/driver_apb.sv(29) @ 24790: uvm_test_top.my_env.agt_apb.drv0 [drv0] Waiting for data from sequencer
UVM_INFO /home/st102/Training/projects/blue_sand/verif/seq/apb_read_write_seq.sv(23) @ 24790: uvm_test_top.my_env.agt_apb.seqr0@@my_seq [SEQ] Generate new item
UVM_INFO /home/st102/Training/projects/blue_sand/verif/seq/apb_read_write_seq.sv(24) @ 24790: uvm_test_top.my_env.agt_apb.seqr0@@my_seq [SEQ] Seq send PKT to Driver: ADDR = 2, pwrite = 0, pwdata = 9ed0e832, prdata = 0, pslverr = 0, delay = 3
UVM_INFO /home/st102/Training/projects/blue_sand/verif/sv/driver_apb.sv(29) @ 24970: uvm_test_top.my_env.agt_apb.drv0 [drv0] Waiting for data from sequencer
UVM_INFO /home/st102/Training/projects/blue_sand/verif/seq/apb_read_write_seq.sv(23) @ 24970: uvm_test_top.my_env.agt_apb.seqr0@@my_seq [SEQ] Generate new item
UVM_INFO /home/st102/Training/projects/blue_sand/verif/seq/apb_read_write_seq.sv(24) @ 24970: uvm_test_top.my_env.agt_apb.seqr0@@my_seq [SEQ] Seq send PKT to Driver: ADDR = 0, pwrite = 1, pwdata = 7564b25, prdata = 0, pslverr = 0, delay = 0
UVM_INFO /home/st102/Training/projects/blue_sand/verif/sv/driver_apb.sv(29) @ 25090: uvm_test_top.my_env.agt_apb.drv0 [drv0] Waiting for data from sequencer
UVM_INFO /home/st102/Training/projects/blue_sand/verif/seq/apb_read_write_seq.sv(23) @ 25090: uvm_test_top.my_env.agt_apb.seqr0@@my_seq [SEQ] Generate new item
UVM_INFO /home/st102/Training/projects/blue_sand/verif/seq/apb_read_write_seq.sv(24) @ 25090: uvm_test_top.my_env.agt_apb.seqr0@@my_seq [SEQ] Seq send PKT to Driver: ADDR = 3, pwrite = 1, pwdata = f0370225, prdata = 0, pslverr = 0, delay = 0
UVM_INFO /home/st102/Training/projects/blue_sand/verif/sv/driver_apb.sv(29) @ 25210: uvm_test_top.my_env.agt_apb.drv0 [drv0] Waiting for data from sequencer
UVM_INFO /home/st102/Training/projects/blue_sand/verif/seq/apb_read_write_seq.sv(23) @ 25210: uvm_test_top.my_env.agt_apb.seqr0@@my_seq [SEQ] Generate new item
UVM_INFO /home/st102/Training/projects/blue_sand/verif/seq/apb_read_write_seq.sv(24) @ 25210: uvm_test_top.my_env.agt_apb.seqr0@@my_seq [SEQ] Seq send PKT to Driver: ADDR = 6, pwrite = 0, pwdata = 975fc4ad, prdata = 0, pslverr = 0, delay = 4
UVM_INFO /home/st102/Training/projects/blue_sand/verif/sv/driver_apb.sv(29) @ 25410: uvm_test_top.my_env.agt_apb.drv0 [drv0] Waiting for data from sequencer
UVM_INFO /home/st102/Training/projects/blue_sand/verif/seq/apb_read_write_seq.sv(23) @ 25410: uvm_test_top.my_env.agt_apb.seqr0@@my_seq [SEQ] Generate new item
UVM_INFO /home/st102/Training/projects/blue_sand/verif/seq/apb_read_write_seq.sv(24) @ 25410: uvm_test_top.my_env.agt_apb.seqr0@@my_seq [SEQ] Seq send PKT to Driver: ADDR = 0, pwrite = 0, pwdata = 3b82dbd8, prdata = 0, pslverr = 0, delay = 2
UVM_INFO /home/st102/Training/projects/blue_sand/verif/sv/driver_apb.sv(29) @ 25570: uvm_test_top.my_env.agt_apb.drv0 [drv0] Waiting for data from sequencer
UVM_INFO /home/st102/Training/projects/blue_sand/verif/seq/apb_read_write_seq.sv(23) @ 25570: uvm_test_top.my_env.agt_apb.seqr0@@my_seq [SEQ] Generate new item
UVM_INFO /home/st102/Training/projects/blue_sand/verif/seq/apb_read_write_seq.sv(24) @ 25570: uvm_test_top.my_env.agt_apb.seqr0@@my_seq [SEQ] Seq send PKT to Driver: ADDR = 0, pwrite = 1, pwdata = 78236304, prdata = 0, pslverr = 0, delay = 5
UVM_INFO /home/st102/Training/projects/blue_sand/verif/sv/driver_apb.sv(29) @ 25790: uvm_test_top.my_env.agt_apb.drv0 [drv0] Waiting for data from sequencer
UVM_INFO /home/st102/Training/projects/blue_sand/verif/seq/apb_read_write_seq.sv(23) @ 25790: uvm_test_top.my_env.agt_apb.seqr0@@my_seq [SEQ] Generate new item
UVM_INFO /home/st102/Training/projects/blue_sand/verif/seq/apb_read_write_seq.sv(24) @ 25790: uvm_test_top.my_env.agt_apb.seqr0@@my_seq [SEQ] Seq send PKT to Driver: ADDR = 4, pwrite = 0, pwdata = 8ab31cdb, prdata = 0, pslverr = 0, delay = 0
UVM_INFO /home/st102/Training/projects/blue_sand/verif/sv/driver_apb.sv(29) @ 25910: uvm_test_top.my_env.agt_apb.drv0 [drv0] Waiting for data from sequencer
UVM_INFO /home/st102/Training/projects/blue_sand/verif/seq/apb_read_write_seq.sv(23) @ 25910: uvm_test_top.my_env.agt_apb.seqr0@@my_seq [SEQ] Generate new item
UVM_INFO /home/st102/Training/projects/blue_sand/verif/seq/apb_read_write_seq.sv(24) @ 25910: uvm_test_top.my_env.agt_apb.seqr0@@my_seq [SEQ] Seq send PKT to Driver: ADDR = 1, pwrite = 0, pwdata = c1fea54a, prdata = 0, pslverr = 0, delay = 5
UVM_INFO /home/st102/Training/projects/blue_sand/verif/sv/driver_apb.sv(29) @ 26130: uvm_test_top.my_env.agt_apb.drv0 [drv0] Waiting for data from sequencer
UVM_INFO /home/st102/Training/projects/blue_sand/verif/seq/apb_read_write_seq.sv(23) @ 26130: uvm_test_top.my_env.agt_apb.seqr0@@my_seq [SEQ] Generate new item
UVM_INFO /home/st102/Training/projects/blue_sand/verif/seq/apb_read_write_seq.sv(24) @ 26130: uvm_test_top.my_env.agt_apb.seqr0@@my_seq [SEQ] Seq send PKT to Driver: ADDR = 2, pwrite = 0, pwdata = 77c09e41, prdata = 0, pslverr = 0, delay = 3
UVM_INFO /home/st102/Training/projects/blue_sand/verif/sv/driver_apb.sv(29) @ 26310: uvm_test_top.my_env.agt_apb.drv0 [drv0] Waiting for data from sequencer
UVM_INFO /home/st102/Training/projects/blue_sand/verif/seq/apb_read_write_seq.sv(23) @ 26310: uvm_test_top.my_env.agt_apb.seqr0@@my_seq [SEQ] Generate new item
UVM_INFO /home/st102/Training/projects/blue_sand/verif/seq/apb_read_write_seq.sv(24) @ 26310: uvm_test_top.my_env.agt_apb.seqr0@@my_seq [SEQ] Seq send PKT to Driver: ADDR = 4, pwrite = 0, pwdata = 1b1243d1, prdata = 0, pslverr = 0, delay = 3
UVM_INFO /home/st102/Training/projects/blue_sand/verif/sv/driver_apb.sv(29) @ 26490: uvm_test_top.my_env.agt_apb.drv0 [drv0] Waiting for data from sequencer
UVM_INFO /home/st102/Training/projects/blue_sand/verif/seq/apb_read_write_seq.sv(23) @ 26490: uvm_test_top.my_env.agt_apb.seqr0@@my_seq [SEQ] Generate new item
UVM_INFO /home/st102/Training/projects/blue_sand/verif/seq/apb_read_write_seq.sv(24) @ 26490: uvm_test_top.my_env.agt_apb.seqr0@@my_seq [SEQ] Seq send PKT to Driver: ADDR = 6, pwrite = 0, pwdata = 9c7909ab, prdata = 0, pslverr = 0, delay = 3
UVM_INFO /home/st102/Training/projects/blue_sand/verif/sv/driver_apb.sv(29) @ 26670: uvm_test_top.my_env.agt_apb.drv0 [drv0] Waiting for data from sequencer
UVM_INFO /home/st102/Training/projects/blue_sand/verif/seq/apb_read_write_seq.sv(23) @ 26670: uvm_test_top.my_env.agt_apb.seqr0@@my_seq [SEQ] Generate new item
UVM_INFO /home/st102/Training/projects/blue_sand/verif/seq/apb_read_write_seq.sv(24) @ 26670: uvm_test_top.my_env.agt_apb.seqr0@@my_seq [SEQ] Seq send PKT to Driver: ADDR = 5, pwrite = 1, pwdata = 4e37f11c, prdata = 0, pslverr = 0, delay = 4
UVM_INFO /home/st102/Training/projects/blue_sand/verif/sv/driver_apb.sv(29) @ 26870: uvm_test_top.my_env.agt_apb.drv0 [drv0] Waiting for data from sequencer
UVM_INFO /home/st102/Training/projects/blue_sand/verif/seq/apb_read_write_seq.sv(23) @ 26870: uvm_test_top.my_env.agt_apb.seqr0@@my_seq [SEQ] Generate new item
UVM_INFO /home/st102/Training/projects/blue_sand/verif/seq/apb_read_write_seq.sv(24) @ 26870: uvm_test_top.my_env.agt_apb.seqr0@@my_seq [SEQ] Seq send PKT to Driver: ADDR = 4, pwrite = 0, pwdata = 15ad7dc7, prdata = 0, pslverr = 0, delay = 2
UVM_INFO /home/st102/Training/projects/blue_sand/verif/sv/driver_apb.sv(29) @ 27030: uvm_test_top.my_env.agt_apb.drv0 [drv0] Waiting for data from sequencer
UVM_INFO /home/st102/Training/projects/blue_sand/verif/seq/apb_read_write_seq.sv(23) @ 27030: uvm_test_top.my_env.agt_apb.seqr0@@my_seq [SEQ] Generate new item
UVM_INFO /home/st102/Training/projects/blue_sand/verif/seq/apb_read_write_seq.sv(24) @ 27030: uvm_test_top.my_env.agt_apb.seqr0@@my_seq [SEQ] Seq send PKT to Driver: ADDR = 0, pwrite = 0, pwdata = 73eb88ce, prdata = 0, pslverr = 0, delay = 1
UVM_INFO /home/st102/Training/projects/blue_sand/verif/sv/driver_apb.sv(29) @ 27170: uvm_test_top.my_env.agt_apb.drv0 [drv0] Waiting for data from sequencer
UVM_INFO /home/st102/Training/projects/blue_sand/verif/seq/apb_read_write_seq.sv(23) @ 27170: uvm_test_top.my_env.agt_apb.seqr0@@my_seq [SEQ] Generate new item
UVM_INFO /home/st102/Training/projects/blue_sand/verif/seq/apb_read_write_seq.sv(24) @ 27170: uvm_test_top.my_env.agt_apb.seqr0@@my_seq [SEQ] Seq send PKT to Driver: ADDR = 5, pwrite = 1, pwdata = 8c4e6322, prdata = 0, pslverr = 0, delay = 0
UVM_INFO /home/st102/Training/projects/blue_sand/verif/sv/driver_apb.sv(29) @ 27290: uvm_test_top.my_env.agt_apb.drv0 [drv0] Waiting for data from sequencer
UVM_INFO /home/st102/Training/projects/blue_sand/verif/seq/apb_read_write_seq.sv(23) @ 27290: uvm_test_top.my_env.agt_apb.seqr0@@my_seq [SEQ] Generate new item
UVM_INFO /home/st102/Training/projects/blue_sand/verif/seq/apb_read_write_seq.sv(24) @ 27290: uvm_test_top.my_env.agt_apb.seqr0@@my_seq [SEQ] Seq send PKT to Driver: ADDR = 4, pwrite = 1, pwdata = 6b64abab, prdata = 0, pslverr = 0, delay = 2
UVM_INFO /home/st102/Training/projects/blue_sand/verif/sv/driver_apb.sv(29) @ 27450: uvm_test_top.my_env.agt_apb.drv0 [drv0] Waiting for data from sequencer
UVM_INFO /home/st102/Training/projects/blue_sand/verif/seq/apb_read_write_seq.sv(23) @ 27450: uvm_test_top.my_env.agt_apb.seqr0@@my_seq [SEQ] Generate new item
UVM_INFO /home/st102/Training/projects/blue_sand/verif/seq/apb_read_write_seq.sv(24) @ 27450: uvm_test_top.my_env.agt_apb.seqr0@@my_seq [SEQ] Seq send PKT to Driver: ADDR = 1, pwrite = 0, pwdata = 75a8535b, prdata = 0, pslverr = 0, delay = 4
UVM_INFO /home/st102/Training/projects/blue_sand/verif/sv/driver_apb.sv(29) @ 27650: uvm_test_top.my_env.agt_apb.drv0 [drv0] Waiting for data from sequencer
UVM_INFO /home/st102/Training/projects/blue_sand/verif/seq/apb_read_write_seq.sv(23) @ 27650: uvm_test_top.my_env.agt_apb.seqr0@@my_seq [SEQ] Generate new item
UVM_INFO /home/st102/Training/projects/blue_sand/verif/seq/apb_read_write_seq.sv(24) @ 27650: uvm_test_top.my_env.agt_apb.seqr0@@my_seq [SEQ] Seq send PKT to Driver: ADDR = 1, pwrite = 1, pwdata = b84297a0, prdata = 0, pslverr = 0, delay = 1
UVM_INFO /home/st102/Training/projects/blue_sand/verif/sv/driver_apb.sv(29) @ 27790: uvm_test_top.my_env.agt_apb.drv0 [drv0] Waiting for data from sequencer
UVM_INFO /home/st102/Training/projects/blue_sand/verif/seq/apb_read_write_seq.sv(23) @ 27790: uvm_test_top.my_env.agt_apb.seqr0@@my_seq [SEQ] Generate new item
UVM_INFO /home/st102/Training/projects/blue_sand/verif/seq/apb_read_write_seq.sv(24) @ 27790: uvm_test_top.my_env.agt_apb.seqr0@@my_seq [SEQ] Seq send PKT to Driver: ADDR = 4, pwrite = 0, pwdata = f84c2780, prdata = 0, pslverr = 0, delay = 3
UVM_INFO /home/st102/Training/projects/blue_sand/verif/sv/driver_apb.sv(29) @ 27970: uvm_test_top.my_env.agt_apb.drv0 [drv0] Waiting for data from sequencer
UVM_INFO /home/st102/Training/projects/blue_sand/verif/seq/apb_read_write_seq.sv(23) @ 27970: uvm_test_top.my_env.agt_apb.seqr0@@my_seq [SEQ] Generate new item
UVM_INFO /home/st102/Training/projects/blue_sand/verif/seq/apb_read_write_seq.sv(24) @ 27970: uvm_test_top.my_env.agt_apb.seqr0@@my_seq [SEQ] Seq send PKT to Driver: ADDR = 5, pwrite = 0, pwdata = d50b18a4, prdata = 0, pslverr = 0, delay = 2
UVM_ERROR /home/st102/Training/projects/blue_sand/verif/sv/scoreboard_counter.sv(77) @ 28090: uvm_test_top.my_env.scbd_counter [SCB] Mismatch [READ] @0x5: exp = 0x0 act = 0xa0
UVM_INFO /home/st102/Training/projects/blue_sand/verif/sv/driver_apb.sv(29) @ 28130: uvm_test_top.my_env.agt_apb.drv0 [drv0] Waiting for data from sequencer
UVM_INFO /home/st102/Training/projects/blue_sand/verif/seq/apb_read_write_seq.sv(23) @ 28130: uvm_test_top.my_env.agt_apb.seqr0@@my_seq [SEQ] Generate new item
UVM_INFO /home/st102/Training/projects/blue_sand/verif/seq/apb_read_write_seq.sv(24) @ 28130: uvm_test_top.my_env.agt_apb.seqr0@@my_seq [SEQ] Seq send PKT to Driver: ADDR = 6, pwrite = 0, pwdata = 90408c0, prdata = 0, pslverr = 0, delay = 1
UVM_INFO /home/st102/Training/projects/blue_sand/verif/sv/driver_apb.sv(29) @ 28270: uvm_test_top.my_env.agt_apb.drv0 [drv0] Waiting for data from sequencer
UVM_INFO /home/st102/Training/projects/blue_sand/verif/seq/apb_read_write_seq.sv(23) @ 28270: uvm_test_top.my_env.agt_apb.seqr0@@my_seq [SEQ] Generate new item
UVM_INFO /home/st102/Training/projects/blue_sand/verif/seq/apb_read_write_seq.sv(24) @ 28270: uvm_test_top.my_env.agt_apb.seqr0@@my_seq [SEQ] Seq send PKT to Driver: ADDR = 3, pwrite = 0, pwdata = 92650b1d, prdata = 0, pslverr = 0, delay = 1
UVM_INFO /home/st102/Training/projects/blue_sand/verif/sv/driver_apb.sv(29) @ 28410: uvm_test_top.my_env.agt_apb.drv0 [drv0] Waiting for data from sequencer
UVM_INFO /home/st102/Training/projects/blue_sand/verif/seq/apb_read_write_seq.sv(23) @ 28410: uvm_test_top.my_env.agt_apb.seqr0@@my_seq [SEQ] Generate new item
UVM_INFO /home/st102/Training/projects/blue_sand/verif/seq/apb_read_write_seq.sv(24) @ 28410: uvm_test_top.my_env.agt_apb.seqr0@@my_seq [SEQ] Seq send PKT to Driver: ADDR = 2, pwrite = 0, pwdata = f3b80607, prdata = 0, pslverr = 0, delay = 4
UVM_INFO /home/st102/Training/projects/blue_sand/verif/sv/driver_apb.sv(29) @ 28610: uvm_test_top.my_env.agt_apb.drv0 [drv0] Waiting for data from sequencer
UVM_INFO /home/st102/Training/projects/blue_sand/verif/seq/apb_read_write_seq.sv(23) @ 28610: uvm_test_top.my_env.agt_apb.seqr0@@my_seq [SEQ] Generate new item
UVM_INFO /home/st102/Training/projects/blue_sand/verif/seq/apb_read_write_seq.sv(24) @ 28610: uvm_test_top.my_env.agt_apb.seqr0@@my_seq [SEQ] Seq send PKT to Driver: ADDR = 4, pwrite = 0, pwdata = c325a264, prdata = 0, pslverr = 0, delay = 3
UVM_INFO /home/st102/Training/projects/blue_sand/verif/sv/driver_apb.sv(29) @ 28790: uvm_test_top.my_env.agt_apb.drv0 [drv0] Waiting for data from sequencer
UVM_INFO /home/st102/Training/projects/blue_sand/verif/seq/apb_read_write_seq.sv(23) @ 28790: uvm_test_top.my_env.agt_apb.seqr0@@my_seq [SEQ] Generate new item
UVM_INFO /home/st102/Training/projects/blue_sand/verif/seq/apb_read_write_seq.sv(24) @ 28790: uvm_test_top.my_env.agt_apb.seqr0@@my_seq [SEQ] Seq send PKT to Driver: ADDR = 4, pwrite = 0, pwdata = b6482775, prdata = 0, pslverr = 0, delay = 2
UVM_INFO /home/st102/Training/projects/blue_sand/verif/sv/driver_apb.sv(29) @ 28950: uvm_test_top.my_env.agt_apb.drv0 [drv0] Waiting for data from sequencer
UVM_INFO /home/st102/Training/projects/blue_sand/verif/seq/apb_read_write_seq.sv(23) @ 28950: uvm_test_top.my_env.agt_apb.seqr0@@my_seq [SEQ] Generate new item
UVM_INFO /home/st102/Training/projects/blue_sand/verif/seq/apb_read_write_seq.sv(24) @ 28950: uvm_test_top.my_env.agt_apb.seqr0@@my_seq [SEQ] Seq send PKT to Driver: ADDR = 5, pwrite = 1, pwdata = 80ee80d6, prdata = 0, pslverr = 0, delay = 4
UVM_INFO /home/st102/Training/projects/blue_sand/verif/sv/driver_apb.sv(29) @ 29150: uvm_test_top.my_env.agt_apb.drv0 [drv0] Waiting for data from sequencer
UVM_INFO /home/st102/Training/projects/blue_sand/verif/seq/apb_read_write_seq.sv(23) @ 29150: uvm_test_top.my_env.agt_apb.seqr0@@my_seq [SEQ] Generate new item
UVM_INFO /home/st102/Training/projects/blue_sand/verif/seq/apb_read_write_seq.sv(24) @ 29150: uvm_test_top.my_env.agt_apb.seqr0@@my_seq [SEQ] Seq send PKT to Driver: ADDR = 4, pwrite = 1, pwdata = df9b3411, prdata = 0, pslverr = 0, delay = 2
UVM_INFO /home/st102/Training/projects/blue_sand/verif/sv/driver_apb.sv(29) @ 29310: uvm_test_top.my_env.agt_apb.drv0 [drv0] Waiting for data from sequencer
